(1776443085.923075) can0 1060EB0A##10100000000010000000001000000000100000000000000FA T
(1776443085.923259) can0 1060D70A##10100000000010000000001000000000100000000000000FA T
(1776443085.935363) can0 107D557D##150551A0000000AF0 T
(1776443085.936783) can0 107C007D##1A03B1263AA4F06E0 T
(1776443085.975305) can0 10607D0A##10100000000010000000001000000000100000000000000FA T
(1776443085.975885) can0 1060910A##10100000000010000000001000000000100000000000000FA T
(1776443086.052236) can0 107D5516##18059700000000AFF R
(1776443086.056843) can0 1060DF16##10100000000010000000001000000000100000000000000FB R
(1776443086.059774) can0 1060E016##102A5DA7E44020000C07F020000C07F020000C07F020000C07F020000C07F020000C07F020000C07F00000000000000FB R
(1776443086.061901) can0 1860E516##1196C993C8308BE41ED6E534034AC5340F5D99B43913A903E16000000000000FF R
(1776443086.381095) can0 107D550D##1030B700000000AE2 R
(1776443086.385698) can0 1060850D##10100000000010000000001000000000100000000000000FE R
(1776443086.388517) can0 1060860D##102CCB39A44025B1C9A4402AFE7994402F93899440261E5954402E4668C44020000C07F022D41914400000000000000FE R
(1776443086.390646) can0 18608B0D##10CFAA63CF340C04199CF5240D0F9524048449E4366D2293E0D000000000000E2 R
(1776443086.396633) can0 107D550C##12B2D700000000AEA R
(1776443086.401230) can0 10607B0C##10100000000010000000001000000000100000000000000E6 R
(1776443086.404031) can0 10607C0C##1029328954402264F8C44026DC98A44020C858B440211E18E44024A809144025FD8924402984D944400000000000000E6 R
(1776443086.406254) can0 1860810C##1C99C9E3C6820BF4115FA5240F2DD5240750F9E433BAA1C3E0C000000000000EA R
(1776443086.437542) can0 107C007D##18FD81963AA4F06E1 T
(1776443086.464491) can0 107D5515##1E16D700000000AE0 R
(1776443086.469072) can0 1060D515##10100000000010000000001000000000100000000000000FC R
(1776443086.471885) can0 1060D615##102C6D5874402379588440204AA8744029F7B8844020000C07F02110B7A44020000C07F020000C07F00000000000000FC R
(1776443086.474016) can0 1860DB15##1CEBAC63C2943B94149305340FEE15340076C9B436C8B893E15000000000000E0 R
(1776443086.548867) can0 107D550A##1C2913E00000000E2 T
(1776443086.582409) can0 107D5517##1734C700000000AF2 R
(1776443086.587038) can0 1060E917##10100000000010000000001000000000100000000000000EE R
(1776443086.589715) can0 1060EA17##102536A8744027D4788440208B18744021E3488440205B4874402D3078844020000C07F020000C07F00000000000000EE R
(1776443086.591915) can0 1860EF17##12C38E23CC5B6BE41346D534005995240C2C39A439A86963E17000000000000F2 R
(1776443086.624396) can0 107D550E##16323700000000AE2 R
(1776443086.628992) can0 10608F0E##10100000000010000000001000000000100000000000000FE R
(1776443086.631810) can0 1060900E##10295857B44020000C07F020000C07F020000C07F020000C07F020000C07F020000C07F020000C07F00000000000000FE R
(1776443086.634022) can0 1860950E##1FF01A53C2FDCBE4161635340FE795340B65E9E432842373E0E000000000000E2 R
(1776443086.683741) can0 1060E10A##10100000000010000000001000000000100000000000000FA T
(1776443086.684448) can0 10613B0A##10100001041010000000001000000000100000000000000FA T
(1776443086.688983) can0 1060870A##10100000000010000000001000000000100000000000000FB T
(1776443086.728803) can0 107D5518##1A26E700000000AE1 R
(1776443086.731360) can0 1060F318##10100000000010000000001000000000100000000000000FD R
(1776443086.734288) can0 1060F418##102AAFE7444020000C07F020000C07F020000C07F020000C07F020000C07F020000C07F020000C07F00000000000000FD R
(1776443086.736487) can0 1860F918##1B897783C1122BD41D7525440A5545340E1639C43DC2E9E3E18000000000000E1 R
(1776443086.811119) can0 107D550B##14E05700000000AED R
(1776443086.815702) can0 1060710B##10100000000010000000001000000000100000000000000E9 R
(1776443086.818481) can0 1060720B##102CE3C864402D2FC894402AFF3874402E4B087440253F487440234648844029745954402B304944400000000000000E9 R
(1776443086.820680) can0 1860770B##15AA0AA3D1946BF41A31C54404D9C534036FB9D43ACD60E3E0B000000000000ED R
(1776443086.844333) can0 107D551F##10D53700000000AEC R
(1776443086.848904) can0 1061391F##1019D933640013E87B34001000000000100000000000000E8 R
(1776443086.851743) can0 10613A1F##102BEDB844402549484440223D78444020000C07F020000C07F020000C07F020000C07F02C272784400000000000000E8 R
(1776443086.854010) can0 18613F1F##1AF9BCF3C0200008040CF52406B9153404D5599436EFACB3E1F000000000000EC R
(1776443086.900485) can0 1060730A##10100000000010000000001000000000100000000000000FB T
(1776443086.935283) can0 107D557D##151551A0000000AF1 T
(1776443086.936856) can0 107C007D##1A67C2163AA4F06E2 T
(1776443086.990711) can0 1060EB0A##10100000000010000000001000000000100000000000000FB T
(1776443086.997327) can0 1060D70A##10100000000010000000001000000000100000000000000FB T
(1776443086.998006) can0 10607D0A##10100000000010000000001000000000100000000000000FB T
(1776443086.998574) can0 1060910A##10100000000010000000001000000000100000000000000FB T
(1776443086.999138) can0 1060840A##101800100010001000100010001000180000000F1 T
(1776443086.999611) can0 1060E80A##101000100010001000100010001000180000000F8 T
(1776443087.000003) can0 1060D40A##101000100010001000100010001000180000000F3 T
(1776443087.000349) can0 10607A0A##101000100010001000100010001000180000000E8 T
(1776443087.014124) can0 10608E0A##101000100010001000100010001000180000000FB T
(1776443087.016006) can0 1060DE0A##101000100010001000100010001000180000000FA T
(1776443087.016441) can0 1060F20A##101000100010001000100010001000180000000FC T
(1776443087.016851) can0 1060F50A##10100000000010000000001000000000100000000000000FC T
(1776443087.050866) can0 107D5516##18159700000000AE0 R
(1776443087.055474) can0 1060DF16##10100000000010000000001000000000100000000000000FC R
(1776443087.058369) can0 1060E016##10281EC7E44020000C07F020000C07F020000C07F020000C07F020000C07F020000C07F020000C07F00000000000000FC R
(1776443087.060548) can0 1860E516##1EFE5993C9F04BE4129765340DEA05340F1D19B43594C903E16000000000000E0 R
(1776443087.381887) can0 107D550D##1040B700000000AE3 R
(1776443087.386488) can0 1060850D##10100000000010000000001000000000100000000000000FF R
(1776443087.389256) can0 1060860D##10220D29A4402B8359A4402C5DA994402E13B994402E4D59544020A5E8C44020000C07F02B234914400000000000000FF R
(1776443087.391455) can0 18608B0D##163F4FA3C3B15C041F4CC52402B065340AD3B9E4303B9293E0D000000000000E3 R
(1776443087.396183) can0 107D550C##12C2D700000000AEB R
(1776443087.400810) can0 10607B0C##10100000000010000000001000000000100000000000000E7 R
(1776443087.403577) can0 10607C0C##1027B3E954402B3428C440227D48A4402368B8B4402A4ED8E44028E7191440288D4924402663E944400000000000000E7 R
(1776443087.405784) can0 1860810C##19ED8F23CB4ECBE4184F55240ADF25240D00D9E4333D51C3E0C000000000000EB R
(1776443087.437239) can0 107C007D##1181B2963AA4F06E3 T
(1776443087.462360) can0 107D5515##1E26D700000000AE1 R
(1776443087.463396) can0 1060840A##101800100010001000100010001000100000000F2 T
(1776443087.464855) can0 1060E80A##101000100010001000100010001000100000000F9 T
(1776443087.465620) can0 1060D40A##101000100010001000100010001000100000000F4 T
(1776443087.466018) can0 10607A0A##101000100010001000100010001000100000000E9 T
(1776443087.468346) can0 1060D515##10100000000010000000001000000000100000000000000FD R
(1776443087.471151) can0 1060D615##1028ED9874402199C884402E0AC874402597F8844020000C07F0256167A44020000C07F020000C07F00000000000000FD R
(1776443087.474309) can0 10608E0A##101000100010001000100010001000100000000FC T
(1776443087.478940) can0 1060DE0A##101000100010001000100010001000100000000FB T
(1776443087.480297) can0 1060F20A##101000100010001000100010001000100000000FD T
(1776443087.480976) can0 1860DB15##167230D3D29F2B8412F2C5340C7BD53401E6B9B433B66893E15000000000000E1 R
(1776443087.548639) can0 107D550A##1C3913E00000000E3 T
(1776443087.580861) can0 107D5517##1744C700000000AF3 R
(1776443087.585444) can0 1060E917##10100000000010000000001000000000100000000000000EF R
(1776443087.588251) can0 1060EA17##102DE918744022B518844023BCF874402D41D884402C2B4874402F40C8844020000C07F020000C07F00000000000000EF R
(1776443087.590388) can0 1860EF17##1ECA6E13CD4ADBE41977153403CC052407FC09A4371A0963E17000000000000F3 R
(1776443087.624472) can0 107D550E##16423700000000AE3 R
(1776443087.629067) can0 10608F0E##10100000000010000000001000000000100000000000000FF R
(1776443087.631968) can0 1060900E##102A27B7B44020000C07F020000C07F020000C07F020000C07F020000C07F020000C07F020000C07F00000000000000FF R
(1776443087.634186) can0 1860950E##13DD3B53CD0CCBE41F359534002715340FE5B9E43DD1D373E0E000000000000E3 R
(1776443087.654132) can0 1060E717##101800100010001000100010001000100000000F9 R
(1776443087.709756) can0 1060E10A##10100000000010000000001000000000100000000000000FB T
(1776443087.723842) can0 107D5518##1A36E700000000AE2 R
(1776443087.728402) can0 1060F318##10100000000010000000001000000000100000000000000FE R
(1776443087.731314) can0 1060F418##1025EF07444020000C07F020000C07F020000C07F020000C07F020000C07F020000C07F020000C07F00000000000000FE R
(1776443087.733521) can0 1860F918##10F3E753C4E21BD417B5154404A4A5340E8699C43AA1A9E3E18000000000000E2 R
(1776443087.769753) can0 10613B0A##10100001041010000000001000000000100000000000000FB T
(1776443087.773854) can0 1060870A##10100000000010000000001000000000100000000000000FC T
(1776443087.812142) can0 107D550B##14F05700000000AEE R
(1776443087.816750) can0 1060710B##10100000000010000000001000000000100000000000000EA R
(1776443087.819473) can0 1060720B##102E88D8644024FFB89440216E08744025FB387440290E6874402676D88440280529544022112944400000000000000EA R
(1776443087.821690) can0 1860770B##1A060AA3D133EBF41621354405E9D534099F89D4368070F3E0B000000000000EE R
(1776443087.842969) can0 107D551F##10E53700000000AED R
(1776443087.847521) can0 1061391F##1018F8C364001FB83B34001000000000100000000000000E9 R
(1776443087.850354) can0 10613A1F##1025DD6844402A597844402A8D78444020000C07F020000C07F020000C07F020000C07F029E6B784400000000000000E9 R
(1776443087.852625) can0 18613F1F##179D8CE3C020000805CCE5240FAB853401C509943A4F3CB3E1F000000000000ED R
(1776443087.936080) can0 107D557D##152551A0000000AF2 T
(1776443087.937767) can0 107C007D##1B7BD3063AA4F06E4 T
(1776443087.939939) can0 1060730A##10100000000010000000001000000000100000000000000FC T
(1776443087.995049) can0 1060EB0A##10100000000010000000001000000000100000000000000FC T
(1776443088.001191) can0 1060D70A##10100000000010000000001000000000100000000000000FC T
(1776443088.002000) can0 10607D0A##10100000000010000000001000000000100000000000000FC T
(1776443088.002479) can0 1060910A##10100000000010000000001000000000100000000000000FC T
(1776443088.049339) can0 107D5516##18259700000000AE1 R
(1776443088.053943) can0 1060DF16##10100000000010000000001000000000100000000000000FD R
(1776443088.056767) can0 1060E016##102D7067F44020000C07F020000C07F020000C07F020000C07F020000C07F020000C07F020000C07F00000000000000FD R
(1776443088.058995) can0 1860E516##1C1159A3C6CFEBD41D6725340DFBF53401FCE9B43263D903E16000000000000E1 R
(1776443088.154744) can0 1060700A##101800100010001000180010001000180000000F7 T
(1776443088.382852) can0 107D550D##1050B700000000AE4 R
(1776443088.387455) can0 1060850D##10100000000010000000001000000000100000000000000E0 R
(1776443088.390247) can0 1060860D##102BEC79A4402312D9A44029FDA994402D53B994402F1E4954402B66B8C44020000C07F02DD86914400000000000000E0 R
(1776443088.392372) can0 18608B0D##13BEFA63C1B42C04174DA5240D41353403A409E43C4D2293E0D000000000000E4 R
(1776443088.395712) can0 107D550C##12D2D700000000AEC R
(1776443088.400321) can0 10607B0C##10100000000010000000001000000000100000000000000E8 R
(1776443088.403139) can0 10607C0C##102404595440236468C440207D78A4402D17E8B440219F58E44023B75914402F8D2924402E73F944400000000000000E8 R
(1776443088.405338) can0 1860810C##15DD19C3C6520BF4188F25240FBD55240F1179E43D3F71C3E0C000000000000EC R
(1776443088.437109) can0 107C007D##1E7603863AA4F06E5 T
(1776443088.460394) can0 107D5515##1E36D700000000AE2 R
(1776443088.464980) can0 1060D515##10100000000010000000001000000000100000000000000FE R
(1776443088.467785) can0 1060D615##10294D8874402CFA388440270AC8744021E808844020000C07F029B0F7A44020000C07F020000C07F00000000000000FE R
(1776443088.470003) can0 1860DB15##1C837C63CD140B941713853409ADB5340E1699B435D7B893E15000000000000E2 R
(1776443088.528319) can0 1061380A##101000100010001000100010001000100000000F0 T
(1776443088.548698) can0 107D550A##1C4913E00000000E4 T
(1776443088.579260) can0 107D5517##1754C700000000AF4 R
(1776443088.583782) can0 1060E917##10100000000010000000001000000000100000000000000F0 R
(1776443088.586658) can0 1060EA17##102948A874402054D884402D0B4874402D624884402E1B4874402BF078844020000C07F020000C07F00000000000000F0 R
(1776443088.588775) can0 1860EF17##10976E13C46B9BE418C7153400EA25240FCC09A43D885963E17000000000000F4 R
(1776443088.624642) can0 107D550E##16523700000000AE4 R
(1776443088.629244) can0 10608F0E##10100000000010000000001000000000100000000000000E0 R
(1776443088.632089) can0 1060900E##10234927B44020000C07F020000C07F020000C07F020000C07F020000C07F020000C07F020000C07F00000000000000E0 R
(1776443088.634274) can0 1860950E##1887CA53C34D3BE413A5D53405E73534037579E43176D373E0E000000000000E4 R
(1776443088.719471) can0 1060E10A##10100000000010000000001000000000100000000000000FC T
(1776443088.720859) can0 107D5518##1A46E700000000AE3 R
(1776443088.725506) can0 1060F318##10100000000010000000001000000000100000000000000FF R
(1776443088.728378) can0 1060F418##1020DEF7444020000C07F020000C07F020000C07F020000C07F020000C07F020000C07F020000C07F00000000000000FF R
(1776443088.730613) can0 1860F918##1FAE7773C490ABD4141355440F64953407F639C43EC3F9E3E18000000000000E3 R
(1776443088.775381) can0 10613B0A##10100001041010000000001000000000100000000000000FC T
(1776443088.777461) can0 1060870A##10100000000010000000001000000000100000000000000FD T
(1776443088.813000) can0 107D550B##15005700000000AEF R
(1776443088.817627) can0 1060710B##10100000000010000000001000000000100000000000000EB R
(1776443088.820337) can0 1060720B##102957886440247018A44021AE4874402A9A887440272E68744025F51884402FE439544028014944400000000000000EB R
(1776443088.822537) can0 1860770B##17668AA3D7346BF414B1854400BAD534017009E43D8E80E3E0B000000000000EF R
(1776443088.841535) can0 107D551F##10F53700000000AEE R
(1776443088.846064) can0 1061391F##101E473364001C485B34001000000000100000000000000EA R
(1776443088.848930) can0 10613A1F##102F7CF8444023EA78444020EDD8444020000C07F020000C07F020000C07F020000C07F02376E784400000000000000EA R
(1776443088.851205) can0 18613F1F##1055DCF3C02000080A7C9524066905340D54A99433CFCCB3E1F000000000000EE R
(1776443088.935852) can0 107D557D##153551A0000000AF3 T
(1776443088.937531) can0 107C007D##175FF3F63AA4F06E6 T
(1776443088.942138) can0 1060730A##10100000000010000000001000000000100000000000000FD T
(1776443088.996363) can0 1060EB0A##10100000000010000000001000000000100000000000000FD T
(1776443089.004424) can0 1060D70A##10100000000010000000001000000000100000000000000FD T
(1776443089.004960) can0 10607D0A##10100000000010000000001000000000100000000000000FD T
(1776443089.005332) can0 1060910A##10100000000010000000001000000000100000000000000FD T
(1776443089.047757) can0 107D5516##18359700000000AE2 R
(1776443089.052355) can0 1060DF16##10100000000010000000001000000000100000000000000FE R
(1776443089.055246) can0 1060E016##102B7F07E44020000C07F020000C07F020000C07F020000C07F020000C07F020000C07F020000C07F00000000000000FE R
(1776443089.057427) can0 1860E516##1192F993C3D08BE413371534010BF534096DC9B43CF43903E16000000000000E2 R
(1776443089.383794) can0 107D550D##1060B700000000AE5 R
(1776443089.388384) can0 1060850D##10100000000010000000001000000000100000000000000E1 R
(1776443089.391151) can0 1060860D##102B6B29A440283219A440245ED994402471F99440216E0954402166E8C44020000C07F02C868914400000000000000E1 R
(1776443089.393350) can0 18608B0D##10A77A83CE93CC041FFCC524037045340EA3A9E436D9A293E0D000000000000E5 R
(1776443089.395293) can0 107D550C##12E2D700000000AED R
(1776443089.399883) can0 10607B0C##10100000000010000000001000000000100000000000000E9 R
(1776443089.402718) can0 10607C0C##1021943954402C1488C4402CDD88A440291788B44020BE28E44025376914402B6D29244021332944400000000000000E9 R
(1776443089.404961) can0 1860810C##1781A9F3CF815BF414CFC5240D6DF5240140D9E43E3D01C3E0C000000000000ED R
(1776443089.437920) can0 107C007D##13BA24763AA4F06E7 T
(1776443089.458624) can0 107D5515##1E46D700000000AE3 R
(1776443089.463215) can0 1060D515##10100000000010000000001000000000100000000000000FF R
(1776443089.466005) can0 1060D615##10287D78744027AA188440228AC8744026D838844020000C07F0289077A44020000C07F020000C07F00000000000000FF R
(1776443089.468149) can0 1860DB15##156F9C63CE33EB941D42F5340BCD25340FD6D9B43B484893E15000000000000E3 R
(1776443089.549187) can0 107D550A##1C5913E00000000E5 T
(1776443089.577723) can0 107D5517##1764C700000000AF5 R
(1776443089.582308) can0 1060E917##10100000000010000000001000000000100000000000000F1 R
(1776443089.585056) can0 1060EA17##102818D874402DA4388440202B6874402991B8844025DB887440205128844020000C07F020000C07F00000000000000F1 R
(1776443089.587242) can0 1860EF17##13D68E13CC7B5BE41AD715340A8AB5240C4C59A43F386963E17000000000000F5 R
(1776443089.624753) can0 107D550E##16623700000000AE5 R
(1776443089.629358) can0 10608F0E##10100000000010000000001000000000100000000000000E1 R
(1776443089.632245) can0 1060900E##10295837B44020000C07F020000C07F020000C07F020000C07F020000C07F020000C07F020000C07F00000000000000E1 R
(1776443089.634427) can0 1860950E##10530A53C94CEBE41065F53408475534061569E43FC1A373E0E000000000000E5 R
(1776443089.717855) can0 107D5518##1A56E700000000AE4 R
(1776443089.722362) can0 1060F318##10100000000010000000001000000000100000000000000E0 R
(1776443089.725271) can0 1060F418##1020FEB7444020000C07F020000C07F020000C07F020000C07F020000C07F020000C07F020000C07F00000000000000E0 R
(1776443089.727499) can0 1860F918##1D2D97A3CCF18BD41D92B5440B5595340AC709C4368259E3E18000000000000E4 R
(1776443089.733044) can0 1060E10A##10100000000010000000001000000000100000000000000FD T
(1776443089.778348) can0 10613B0A##10100001041010000000001000000000100000000000000FD T
(1776443089.779982) can0 1060870A##10100000000010000000001000000000100000000000000FE T
(1776443089.813934) can0 107D550B##15105700000000AF0 R
(1776443089.818519) can0 1060710B##10100000000010000000001000000000100000000000000EC R
(1776443089.821274) can0 1060720B##1028BEC854402D1F689440205E6874402A5A187440234FB874402C660884402574595440298FE934400000000000000EC R
(1776443089.823476) can0 1860770B##1029DAA3D3245BF41A90B544004AE5340AEF49D4397B60E3E0B000000000000F0 R
(1776443089.840112) can0 107D551F##11053700000000AEF R
(1776443089.844651) can0 1061391F##101006A3640013382B34001000000000100000000000000EB R
(1776443089.847555) can0 10613A1F##1025EC98444029B9B84440269D58444020000C07F020000C07F020000C07F020000C07F027063784400000000000000EB R
(1776443089.849776) can0 18613F1F##1DA58CF3C02000080C4C852401C9353400254994357F1CB3E1F000000000000EF R
(1776443089.935928) can0 107D557D##154551A0000000AF4 T
(1776443089.937626) can0 107C007D##1E0444F63AA4F06E8 T
(1776443089.996925) can0 1060730A##10100000000010000000001000000000100000000000000FE T
(1776443089.998891) can0 1060EB0A##10100000000010000000001000000000100000000000000FE T
(1776443090.008401) can0 1060D70A##10100000000010000000001000000000100000000000000FE T
(1776443090.008934) can0 10607D0A##10100000000010000000001000000000100000000000000FE T
(1776443090.009533) can0 1060910A##10100000000010000000001000000000100000000000000FE T
(1776443090.046226) can0 107D5516##18459700000000AE3 R
(1776443090.050902) can0 1060DF16##10100000000010000000001000000000100000000000000FF R
(1776443090.053801) can0 1060E016##102EBE67E44020000C07F020000C07F020000C07F020000C07F020000C07F020000C07F020000C07F00000000000000FF R
(1776443090.055934) can0 1860E516##1304E993C3709BE414C725340ABB15340F4D49B435142903E16000000000000E3 R
(1776443090.240682) can0 1060D315##101000100010001000100018001000100000000FE R
(1776443090.384721) can0 107D550D##1070B700000000AE6 R
(1776443090.389319) can0 1060850D##10100000000010000000001000000000100000000000000E2 R
(1776443090.392137) can0 1060860D##102DCA79A440244309A4402F1DB9944025338994402E1F1954402907B8C44020000C07F02065B914400000000000000E2 R
(1776443090.394266) can0 18608B0D##1BA9DA83CB23CC04164D15240760E5340B2339E43898C293E0D000000000000E6 R
(1776443090.395697) can0 107D550C##12F2D700000000AEE R
(1776443090.399472) can0 10607B0C##10100000000010000000001000000000100000000000000EA R
(1776443090.402256) can0 10607C0C##1021E4495440238618C44023BD48A44028F7C8B4402C4E98E44024E76914402BEE8924402A836944400000000000000EA R
(1776443090.404482) can0 1860810C##1297E9E3C8C22BF41790153406ECE524010159E431BE41C3E0C000000000000EE R
(1776443090.437725) can0 107C007D##1DAE45663AA4F06E9 T
(1776443090.456767) can0 107D5515##1E56D700000000AE4 R
(1776443090.461356) can0 1060D515##10100000000010000000001000000000100000000000000E0 R
(1776443090.464151) can0 1060D615##102DCDB87440213958844022DB1874402447A8844020000C07F02CF157A44020000C07F020000C07F00000000000000E0 R
(1776443090.466350) can0 1860DB15##1E125C83C4E42B9417D2A5340F0C7534017719B43BE5E893E15000000000000E4 R
(1776443090.548913) can0 107D550A##1C6913E00000000E6 T
(1776443090.576280) can0 107D5517##1774C700000000AF6 R
(1776443090.580839) can0 1060E917##10100000000010000000001000000000100000000000000F2 R
(1776443090.583568) can0 1060EA17##102E790874402763D88440240BB874402CB1B88440204B487440269278844020000C07F020000C07F00000000000000F2 R
(1776443090.585765) can0 1860EF17##15623E13C39B2BE41E1695340209E5240D4B39A436A81963E17000000000000F6 R
(1776443090.625055) can0 107D550E##16723700000000AE6 R
(1776443090.629639) can0 10608F0E##10100000000010000000001000000000100000000000000E2 R
(1776443090.632476) can0 1060900E##1028D767B44020000C07F020000C07F020000C07F020000C07F020000C07F020000C07F020000C07F00000000000000E2 R
(1776443090.634689) can0 1860950E##15FB0A33CFFD5BE413E5653409E785340DE5B9E437569373E0E000000000000E6 R
(1776443090.714866) can0 107D5518##1A66E700000000AE5 R
(1776443090.719450) can0 1060F318##10100000000010000000001000000000100000000000000E1 R
(1776443090.722269) can0 1060F418##1029DFD7444020000C07F020000C07F020000C07F020000C07F020000C07F020000C07F020000C07F00000000000000E1 R
(1776443090.724476) can0 1860F918##1345B763CE317BD419D425440AE5A5340346C9C4321279E3E18000000000000E5 R
(1776443090.741680) can0 1060E10A##10100000000010000000001000000000100000000000000FE T
(1776443090.782245) can0 10613B0A##10100001041010000000001000000000100000000000000FE T
(1776443090.783066) can0 1060870A##10100000000010000000001000000000100000000000000FF T
(1776443090.814854) can0 107D550B##15205700000000AF1 R
(1776443090.819460) can0 1060710B##10100000000010000000001000000000100000000000000ED R
(1776443090.822228) can0 1060720B##102D5378644026AFD89440252E987440297AD874402AAFA874402C16C884402234495440255F5934400000000000000ED R
(1776443090.824373) can0 1860770B##1DBBDAA3D7945BF419A0B5440A3BC5340D1F69D4324EB0E3E0B000000000000F1 R
(1776443090.838719) can0 107D551F##11153700000000AF0 R
(1776443090.843269) can0 1061391F##10126723640013383B34001000000000100000000000000EC R
(1776443090.846112) can0 10613A1F##102EDCB844402279F84440276D18444020000C07F020000C07F020000C07F020000C07F029969784400000000000000EC R
(1776443090.848387) can0 18613F1F##1A2FACE3C0200008050C6524008A453408444994350F9CB3E1F000000000000F0 R
(1776443090.935973) can0 107D557D##155551A0000000AF5 T
(1776443090.937692) can0 107C007D##15D865E63AA4F06EA T
(1776443090.999861) can0 1060730A##10100000000010000000001000000000100000000000000FF T
(1776443091.001433) can0 1060EB0A##10100000000010000000001000000000100000000000000FF T
(1776443091.010253) can0 1060D70A##10100000000010000000001000000000100000000000000FF T
(1776443091.012819) can0 10607D0A##10100000000010000000001000000000100000000000000FF T
(1776443091.013484) can0 1060910A##10100000000010000000001000000000100000000000000FF T
(1776443091.044594) can0 107D5516##18559700000000AE4 R
(1776443091.049280) can0 1060DF16##10100000000010000000001000000000100000000000000E0 R
(1776443091.052194) can0 1060E016##102E3E57E44020000C07F020000C07F020000C07F020000C07F020000C07F020000C07F020000C07F00000000000000E0 R
(1776443091.054342) can0 1860E516##18B0C9C3C0006BE41D9805340C09F5340F9E39B43224F903E16000000000000E4 R
(1776443091.385556) can0 107D550D##1080B700000000AE7 R
(1776443091.390173) can0 1060850D##10100000000010000000001000000000100000000000000E3 R
(1776443091.392962) can0 1060860D##10245C29A4402CA209A440256D0994402A839994402FEEB9544021A768C44020000C07F02D96A914400000000000000E3 R
(1776443091.395091) can0 18608B0D##19A75A83C4243C041ADDE5240EB1753408E459E43FBB7293E0D000000000000E7 R
(1776443091.396505) can0 107D550C##1302D700000000AEF R
(1776443091.398532) can0 10607B0C##10100000000010000000001000000000100000000000000EB R
(1776443091.402864) can0 10607C0C##1026B459544020C478C4402BDE28A4402066C8B4402BFD88E4402898D91440251CF9244027B3B944400000000000000EB R
(1776443091.405086) can0 1860810C##1CCD49D3CE513BF41B6F3524064C952407F149E43A1D01C3E0C000000000000EF R
(1776443091.437467) can0 107C007D##15C276663AA4F06EB T
(1776443091.454970) can0 107D5515##1E66D700000000AE5 R
(1776443091.459560) can0 1060D515##10100000000010000000001000000000100000000000000E1 R
(1776443091.462360) can0 1060D615##102FAD8874402AF9488440228AF874402D97A8844020000C07F020B107A44020000C07F020000C07F00000000000000E1 R
(1776443091.464551) can0 1860DB15##18825C73C4139B941C7165340DCDC534062639B43C25E893E15000000000000E5 R
(1776443091.508092) can0 1C7D560A##12A0000000114700073007A007D00840087008E009100D400D700DE00E100E800EB00F200F50038013B01551D561D3A000000011C6F007100720079007B007CA7 T
(1776443091.508288) can0 1C7D560A##1008300850086008D008F009000D300D500D600DD00DF00E000E700E900EA00F100F300F400370139013A01551D40000000000000000000000000000000000007 T
(1776443091.508591) can0 1C7D560A##100000000000000000000000000000000000000000000000000000000000000000000000000000000000000000000000000004000000000000000000000000027 T
(1776443091.508798) can0 1C7D560A##100000000000000000000000000000000000000000000000000000000000000000000000000000003000000004000000000000000000000000000000000015347 T
(1776443091.548717) can0 107D550A##1C7913E00000000E7 T
(1776443091.574889) can0 107D5517##1784C700000000AF7 R
(1776443091.579453) can0 1060E917##10100000000010000000001000000000100000000000000F3 R
(1776443091.582250) can0 1060EA17##102978C874402874888440276AE8744023A24884402BCA587440296238844020000C07F020000C07F00000000000000F3 R
(1776443091.584388) can0 1860EF17##19EE0E03C4AAEBE41325D53403EA75240DBC29A435065963E17000000000000F7 R
(1776443091.625232) can0 107D550E##16823700000000AE7 R
(1776443091.629835) can0 10608F0E##10100000000010000000001000000000100000000000000E3 R
(1776443091.632680) can0 1060900E##102A17A7B44020000C07F020000C07F020000C07F020000C07F020000C07F020000C07F020000C07F00000000000000E3 R
(1776443091.634882) can0 1860950E##1FECEA33C9FD2BE416D4C53406073534085579E43AF15373E0E000000000000E7 R
(1776443091.711879) can0 107D5518##1A76E700000000AE6 R
(1776443091.716460) can0 1060F318##10100000000010000000001000000000100000000000000E2 R
(1776443091.719306) can0 1060F418##102D8F97444020000C07F020000C07F020000C07F020000C07F020000C07F020000C07F020000C07F00000000000000E2 R
(1776443091.721510) can0 1860F918##166557B3C351DBD41D24854406F4F534046749C43AB259E3E18000000000000E6 R
(1776443091.752187) can0 1060E10A##10100000000010000000001000000000100000000000000FF T
(1776443091.784340) can0 10613B0A##10100001041010000000001000000000100000000000000FF T
(1776443091.785897) can0 1060870A##10100000000010000000001000000000100000000000000E0 T
(1776443091.816679) can0 107D550B##15305700000000AF2 R
(1776443091.821327) can0 1060710B##10100000000010000000001000000000100000000000000EE R
(1776443091.824056) can0 1060720B##1027B38864402D1FC89440243F7874402A7AE8744026BE4874402665C884402074B9544020411944400000000000000EE R
(1776443091.826258) can0 1860770B##154BDAA3D7749BF411E1C5440BCA5534078FA9D43FAB70E3E0B000000000000F2 R
(1776443091.837252) can0 107D551F##11253700000000AF1 R
(1776443091.841812) can0 1061391F##1019E6B3640011281B34001000000000100000000000000ED R
(1776443091.844680) can0 10613A1F##1029ED2844402A89A8444024AD38444020000C07F020000C07F020000C07F020000C07F024465784400000000000000ED R
(1776443091.846987) can0 18613F1F##1247AD03C02000080B9D252402DA65340704A9943CBD7CB3E1F000000000000F1 R
(1776443091.936834) can0 1C7D567D##10C0000000105001C551D561DE51FE61F78000000013B6F007000710072007300770079007A007B007C007D008100830084008500860087008B008D008E008FAD T
(1776443091.936869) can0 1C7D567D##100900091009500D300D400D500D600D700DB00DD00DE00DF00E000E100E500E700E800E900EA00EB00EF00F100F200F300F400F500F9003701380139013A010D T
(1776443091.936921) can0 1C7D567D##13B013F01001C551DE51FE61FF81F400000000000000000000000000000000000000000000000000000000000000000000000000000000000000000000000002D T
(1776443091.936990) can0 1C7D567D##10000000000000000000000000000000000000040000000000000000000000000000000000000000000000000000000000000000000000000000000000000000D T
(1776443091.937093) can0 1C7D567D##100000000000000000300E00300400000000000000000000000000000001C5B6D T
(1776443091.937748) can0 107D557D##156551A0000000AF6 T
(1776443091.938186) can0 107C007D##19BC76D63AA4F06EC T
(1776443092.003959) can0 1060840A##101800100010001000100010001000180000000F3 T
(1776443092.005833) can0 1060E80A##101000100010001000100010001000180000000FA T
(1776443092.006599) can0 1060D40A##101000100010001000100010001000180000000F5 T
(1776443092.007058) can0 10607A0A##101000100010001000100010001000180000000EA T
(1776443092.017935) can0 10608E0A##101000100010001000100010001000180000000FD T
(1776443092.022304) can0 1060DE0A##101000100010001000100010001000180000000FC T
(1776443092.023049) can0 1060F20A##101000100010001000100010001000180000000FE T
(1776443092.023701) can0 1060730A##10100000000010000000001000000000100000000000000E0 T
(1776443092.024423) can0 1060EB0A##10100000000010000000001000000000100000000000000E0 T
(1776443092.025118) can0 1060D70A##10100000000010000000001000000000100000000000000E0 T
(1776443092.025799) can0 10607D0A##10100000000010000000001000000000100000000000000E0 T
(1776443092.026491) can0 1060910A##10100000000010000000001000000000100000000000000E0 T
(1776443092.042998) can0 107D5516##18659700000000AE5 R
(1776443092.047633) can0 1060DF16##10100000000010000000001000000000100000000000000E1 R
(1776443092.050514) can0 1060E016##10267DD7E44020000C07F020000C07F020000C07F020000C07F020000C07F020000C07F020000C07F00000000000000E1 R
(1776443092.052747) can0 1860E516##13C03993C260EBE41D0775340E4B95340F9D79B43FB40903E16000000000000E5 R
(1776443092.386476) can0 107D550D##1090B700000000AE8 R
(1776443092.391049) can0 1060850D##10100000000010000000001000000000100000000000000E4 R
(1776443092.393798) can0 1060860D##10256D79A4402CA249A4402CBD99944022533994402E5E595440238808C44020000C07F025C5C914400000000000000E4 R
(1776443092.395208) can0 107D550C##1312D700000000AF0 R
(1776443092.397425) can0 18608B0D##10244F93C4513C041B0CB5240C11453402E379E43FDCD293E0D000000000000E8 R
(1776443092.399436) can0 10607B0C##10100000000010000000001000000000100000000000000EC R
(1776443092.402256) can0 10607C0C##102182B9544025B4E8C4402A2D68A4402526F8B440253E78E4402B09191440217DB9244024C2F944400000000000000EC R
(1776443092.404505) can0 1860810C##13CC4F33C41F6BE4129FA52409ECE5240D0149E4375BB1C3E0C000000000000F0 R
(1776443092.438062) can0 107C007D##18A6B7563AA4F06ED T
(1776443092.453348) can0 107D5515##1E76D700000000AE6 R
(1776443092.457852) can0 1060D515##10100000000010000000001000000000100000000000000E2 R
(1776443092.460679) can0 1060D615##102BAD7874402718D884402FEAB874402FB748844020000C07F020E187A44020000C07F020000C07F00000000000000E2 R
(1776443092.461418) can0 1060840A##101800100010001000100010001000100000000F4 T
(1776443092.462381) can0 1060E80A##101000100010001000100010001000100000000FB T
(1776443092.462886) can0 1860DB15##173360E3DDEF2B841E1215340B1E05340CA6B9B43D07F893E15000000000000E6 R
(1776443092.465919) can0 1060D40A##101000100010001000100010001000100000000F6 T
(1776443092.469069) can0 10607A0A##101000100010001000100010001000100000000EB T
(1776443092.479174) can0 10608E0A##101000100010001000100010001000100000000FE T
(1776443092.480191) can0 1060DE0A##101000100010001000100010001000100000000FD T
(1776443092.480692) can0 1060F20A##101000100010001000100010001000100000000FF T
(1776443092.548689) can0 107D550A##1C8913E00000000E8 T
(1776443092.573316) can0 107D5517##1794C700000000AF8 R
(1776443092.577900) can0 1060E917##10100000000010000000001000000000100000000000000F4 R
(1776443092.580680) can0 1060EA17##1022F828744027B3E8844025DB1874402DB2688440206B087440287178844020000C07F020000C07F00000000000000F4 R
(1776443092.582846) can0 1860EF17##12A42E03C32AABE41B06C53409D975240A0BC9A43D083963E17000000000000F8 R
(1776443092.599939) can0 10606F0B##101000100018001000180010001800100000000FB R
(1776443092.625416) can0 107D550E##16923700000000AE8 R
(1776443092.629994) can0 10608F0E##10100000000010000000001000000000100000000000000E4 R
(1776443092.632917) can0 1060900E##102977D7B44020000C07F020000C07F020000C07F020000C07F020000C07F020000C07F020000C07F00000000000000E4 R
(1776443092.635149) can0 1860950E##1DFADB53C70C9BE41F94F5340925F534092539E43AF3F373E0E000000000000E8 R
(1776443092.708696) can0 107D5518##1A86E700000000AE7 R
(1776443092.713333) can0 1060F318##10100000000010000000001000000000100000000000000E3 R
(1776443092.716205) can0 1060F418##102EB017544020000C07F020000C07F020000C07F020000C07F020000C07F020000C07F020000C07F00000000000000E3 R
(1776443092.718375) can0 1860F918##1DC5D763CA812BD411A3F5440144A5340E9689C433D0C9E3E18000000000000E7 R
(1776443092.740313) can0 1060830D##101000100010001000180010001000100000000EF R
(1776443092.812808) can0 1060E10A##10100000000010000000001000000000100000000000000E0 T
(1776443092.814041) can0 10613B0A##10100001041010000000001000000000100000000000000E0 T
(1776443092.814411) can0 1060870A##10100000000010000000001000000000100000000000000E1 T
(1776443092.821997) can0 1060710B##10100000000010000000001000000000100000000000000EF R
(1776443092.823324) can0 107D550B##15405700000000AF3 R
(1776443092.826113) can0 1060720B##1020CC2874402C2F08944023BEB874402F2A18744026EE5874402756B8844028941954402BE06944400000000000000EF R
(1776443092.828426) can0 1860770B##17B90AA3DB846BF41CA0E544011AF53402B049E4345CF0E3E0B000000000000F3 R
(1776443092.835844) can0 107D551F##11353700000000AF2 R
(1776443092.840386) can0 1061391F##101DB673640016981B34001000000000100000000000000EE R
(1776443092.843260) can0 10613A1F##102A2CB844402069A844402B6DB8444020000C07F020000C07F020000C07F020000C07F024B66784400000000000000EE R
(1776443092.845516) can0 18613F1F##18E79CF3C02000080A9CD5240B79B5340BC4299437AECCB3E1F000000000000F2 R
(1776443092.935820) can0 107D557D##157551A0000000AF7 T
(1776443092.937662) can0 107C007D##12E0C7D63AA4F06EE T
(1776443093.026173) can0 1060730A##10100000000010000000001000000000100000000000000E1 T
(1776443093.030448) can0 1060EB0A##10100000000010000000001000000000100000000000000E1 T
(1776443093.031046) can0 1060D70A##10100000000010000000001000000000100000000000000E1 T
(1776443093.031664) can0 10607D0A##10100000000010000000001000000000100000000000000E1 T
(1776443093.032338) can0 1060910A##10100000000010000000001000000000100000000000000E1 T
(1776443093.041503) can0 107D5516##18759700000000AE6 R
(1776443093.045939) can0 1060DD16##101000100010001000100010001000100000000E7 R
(1776443093.048098) can0 1060DF16##10100000000010000000001000000000100000000000000E2 R
(1776443093.050985) can0 1060E016##102D5E87E44020000C07F020000C07F020000C07F020000C07F020000C07F020000C07F020000C07F00000000000000E2 R
(1776443093.053191) can0 1860E516##12259983CD90ABE41207A534002BF53404DD39B439351903E16000000000000E6 R
(1776443093.167858) can0 1060700A##101800100010001000180010001000180000000F8 T
(1776443093.387632) can0 107D550D##10A0B700000000AE9 R
(1776443093.392212) can0 1060850D##10100000000010000000001000000000100000000000000E5 R
(1776443093.394997) can0 1060860D##10213BC9A4402B6159A4402F7E7994402EF249944024CE2954402B3728C44020000C07F0278B9914400000000000000E5 R
(1776443093.396331) can0 107D550C##1322D700000000AF1 R
(1776443093.398378) can0 10607B0C##10100000000010000000001000000000100000000000000ED R
(1776443093.400582) can0 18608B0D##1A730A73C313EC04125C55240BD1453406F369E4301A7293E0D000000000000E9 R
(1776443093.403380) can0 10607C0C##1023638954402134F8C440296E28A440258708B440207EF8E44021065914402DEE5924402FB1C944400000000000000ED R
(1776443093.405636) can0 1860810C##12E749F3C1122BF4160FD524030C7524095179E43D1EF1C3E0C000000000000F1 R
(1776443093.437876) can0 107C007D##1BEAB8463AA4F06EF T
(1776443093.451423) can0 107D5515##1E86D700000000AE7 R
(1776443093.455973) can0 1060D515##10100000000010000000001000000000100000000000000E3 R
(1776443093.458823) can0 1060D615##1020CDE874402FD998844024EAE874402BB7B8844020000C07F0254117A44020000C07F020000C07F00000000000000E3 R
(1776443093.461003) can0 1860DB15##1ECE7C63C953CB941762E53404BCC534029749B43D582893E15000000000000E7 R
(1776443093.542135) can0 1061380A##101000100010001000100010001000100000000F1 T
(1776443093.548491) can0 107D550A##1C9913E00000000E9 T
(1776443093.571912) can0 107D5517##17A4C700000000AF9 R
(1776443093.576494) can0 1060E917##10100000000010000000001000000000100000000000000F5 R
(1776443093.579302) can0 1060EA17##10229868744021841884402F9C18744026F2B88440298BB8744024A0D8844020000C07F020000C07F00000000000000F5 R
(1776443093.581447) can0 1860EF17##1D0AFE33CF3AEBE410E69534074AC52405AB49A43508E963E17000000000000F9 R
(1776443093.625743) can0 107D550E##16A23700000000AE9 R
(1776443093.630326) can0 10608F0E##10100000000010000000001000000000100000000000000E5 R
(1776443093.633171) can0 1060900E##102B0737B44020000C07F020000C07F020000C07F020000C07F020000C07F020000C07F020000C07F00000000000000E5 R
(1776443093.635377) can0 1860950E##1FC20A43CADD8BE41724C5340616D5340D6549E43C44D373E0E000000000000E9 R
(1776443093.705681) can0 107D5518##1A96E700000000AE8 R
(1776443093.710125) can0 1060F118##101800100010001000100010001000100000000E4 R
(1776443093.712190) can0 1060F318##10100000000010000000001000000000100000000000000E4 R
(1776443093.715084) can0 1060F418##10253FA7444020000C07F020000C07F020000C07F020000C07F020000C07F020000C07F020000C07F00000000000000E4 R
(1776443093.717334) can0 1860F918##142B6783C5019BD41483B5440B95B53400A739C43AB239E3E18000000000000E8 R
(1776443093.817857) can0 107D550B##15505700000000AF4 R
(1776443093.822289) can0 1060E10A##10100000000010000000001000000000100000000000000E1 T
(1776443093.822473) can0 1060710B##10100000000010000000001000000000100000000000000F0 R
(1776443093.825258) can0 1060720B##10240A28644028FF1894402E6E8874402D0AD874402E1ED874402B1448844027D48954402E905944400000000000000F0 R
(1776443093.825974) can0 10613B0A##10100001041010000000001000000000100000000000000E1 T
(1776443093.829918) can0 1060870A##10100000000010000000001000000000100000000000000E2 T
(1776443093.831525) can0 1860770B##1CE80AA3D2542BF41FA0A54402D9C534084F79D43FD9E0E3E0B000000000000F4 R
(1776443093.835001) can0 107D551F##11453700000000AF3 R
(1776443093.839081) can0 1061391F##101746A364001DA81B34001000000000100000000000000EF R
(1776443093.841957) can0 10613A1F##102E6CF8444021E9884440249D98444020000C07F020000C07F020000C07F020000C07F02BC64784400000000000000EF R
(1776443093.844213) can0 18613F1F##13CDBCC3C0200008076CA524005B95340AE50994382E8CB3E1F000000000000F3 R
(1776443093.935303) can0 107D557D##158551A0000000AF8 T
(1776443093.936908) can0 107C007D##1B44D8C63AA4F06F0 T
(1776443094.030168) can0 1060730A##10100000000010000000001000000000100000000000000E2 T
(1776443094.034286) can0 1060EB0A##10100000000010000000001000000000100000000000000E2 T
(1776443094.037096) can0 1060D70A##10100000000010000000001000000000100000000000000E2 T
(1776443094.037650) can0 10607D0A##10100000000010000000001000000000100000000000000E2 T
(1776443094.038077) can0 1060910A##10100000000010000000001000000000100000000000000E2 T
(1776443094.046304) can0 1060DF16##10100000000010000000001000000000100000000000000E3 R
(1776443094.049193) can0 1060E016##10241E97E44020000C07F020000C07F020000C07F020000C07F020000C07F020000C07F020000C07F00000000000000E3 R
(1776443094.050577) can0 107D5516##18859700000000AE7 R
(1776443094.052786) can0 1860E516##1A6739A3C800ABE414D6D534038AB534081DF9B432A61903E16000000000000E7 R
(1776443094.229399) can0 10608D0E##101000100010001000180018001000180000000E8 R
(1776443094.388692) can0 107D550D##10B0B700000000AEA R
(1776443094.393293) can0 1060850D##10100000000010000000001000000000100000000000000E6 R
(1776443094.394660) can0 107D550C##1332D700000000AF2 R
(1776443094.397456) can0 1060860D##102CBBB9A44027D339A440202EE9944020E2799440274DE954402067D8C44020000C07F025F19914400000000000000E6 R
(1776443094.399500) can0 10607B0C##10100000000010000000001000000000100000000000000EE R
(1776443094.402306) can0 10607C0C##102074495440290488C4402FFE08A4402BB7F8B440265F48E4402F161914402FCE7924402C738944400000000000000EE R
(1776443094.404537) can0 1860810C##148439D3CA72DBF41C6005340BBEA5240EE249E4309C91C3E0C000000000000F2 R
(1776443094.406744) can0 18608B0D##15932A63C6B43C04101D85240E013534036449E4387A3293E0D000000000000EA R
(1776443094.437275) can0 107C007D##10CEB9363AA4F06F1 T
(1776443094.449671) can0 107D5515##1E96D700000000AE8 R
(1776443094.454239) can0 1060D515##10100000000010000000001000000000100000000000000E4 R
(1776443094.457021) can0 1060D615##10225DA874402F79B884402D5B287440214818844020000C07F02B6097A44020000C07F020000C07F00000000000000E4 R
(1776443094.459228) can0 1860DB15##14BD3C53C063FB94128295340BCC353405E6E9B430A70893E15000000000000E8 R
(1776443094.555710) can0 107D550A##1CA913E00000000EA T
(1776443094.570480) can0 107D5517##17B4C700000000AFA R
(1776443094.575052) can0 1060E917##10100000000010000000001000000000100000000000000F6 R
(1776443094.577815) can0 1060EA17##102C790874402123A884402A5BA874402E928884402C0B787440229068844020000C07F020000C07F00000000000000F6 R
(1776443094.580018) can0 1860EF17##1AE19E33CA5B2BE41726953404586524065C09A436892963E17000000000000FA R
(1776443094.626020) can0 107D550E##16B23700000000AEA R
(1776443094.630606) can0 10608F0E##10100000000010000000001000000000100000000000000E6 R
(1776443094.633541) can0 1060900E##102E7787B44020000C07F020000C07F020000C07F020000C07F020000C07F020000C07F020000C07F00000000000000E6 R
(1776443094.635677) can0 1860950E##1E0E7A43C47DBBE41516453408D6E534092589E43EE5D373E0E000000000000EA R
(1776443094.702777) can0 107D5518##1AA6E700000000AE9 R
(1776443094.707340) can0 1060F318##10100000000010000000001000000000100000000000000E5 R
(1776443094.710207) can0 1060F418##102BAE57444020000C07F020000C07F020000C07F020000C07F020000C07F020000C07F020000C07F00000000000000E5 R
(1776443094.712435) can0 1860F918##16BE4773C4919BD41113D5440AB595340C66E9C437D3B9E3E18000000000000E9 R
(1776443094.819055) can0 107D550B##15605700000000AF5 R
(1776443094.823595) can0 1060710B##10100000000010000000001000000000100000000000000F1 R
(1776443094.826389) can0 1060720B##1028FC887440263F689440280E687440213A987440232F88744025553884402D7339544028102944400000000000000F1 R
(1776443094.828612) can0 1860770B##1B956AA3D5346BF41BE0C544087BA53403CFE9D4375E20E3E0B000000000000F5 R
(1776443094.833209) can0 107D551F##11553700000000AF4 R
(1776443094.835093) can0 1060E10A##10100000000010000000001000000000100000000000000E2 T
(1776443094.837651) can0 1061371F##101000100010001000100010001000180000000E2 R
(1776443094.841729) can0 1061391F##1014E7B3640016083B34001000000000100000000000000F0 R
(1776443094.844528) can0 10613A1F##10236D68444022D958444023CCC8444020000C07F020000C07F020000C07F020000C07F02B464784400000000000000F0 R
(1776443094.846777) can0 18613F1F##1A82BCF3C020000800CDA5240589253407856994382ECCB3E1F000000000000F4 R
(1776443094.874625) can0 10613B0A##10100001041010000000001000000000100000000000000E2 T
(1776443094.877685) can0 1060870A##10100000000010000000001000000000100000000000000E3 T
(1776443094.936025) can0 107D557D##159551A0000000AF9 T
(1776443094.937797) can0 107C007D##19B8D9B63AA4F06F2 T
(1776443095.032336) can0 1060730A##10100000000010000000001000000000100000000000000E3 T
(1776443095.038313) can0 107D5516##18959700000000AE8 R
(1776443095.039833) can0 1060EB0A##10100000000010000000001000000000100000000000000E3 T
(1776443095.042401) can0 1060D70A##10100000000010000000001000000000100000000000000E3 T
(1776443095.043270) can0 10607D0A##10100000000010000000001000000000100000000000000E3 T
(1776443095.044711) can0 1060910A##10100000000010000000001000000000100000000000000E3 T
(1776443095.044914) can0 1060DF16##10100000000010000000001000000000100000000000000E4 R
(1776443095.046794) can0 1060790C##101000100018001000180010001000180000000ED R
(1776443095.055857) can0 1060E016##1029FD07E44020000C07F020000C07F020000C07F020000C07F020000C07F020000C07F020000C07F00000000000000E4 R
(1776443095.058069) can0 1860E516##1D612993C9309BE412F7453402D915340A0D59B435E4D903E16000000000000E8 R
(1776443095.389902) can0 107D550D##10C0B700000000AEB R
(1776443095.393127) can0 107D550C##1342D700000000AF3 R
(1776443095.395069) can0 1060850D##10100000000010000000001000000000100000000000000E7 R
(1776443095.397618) can0 10607B0C##10100000000010000000001000000000100000000000000EF R
(1776443095.400467) can0 10607C0C##102AE40954402A93B8C440291DC8A440214808B440276E98E44023C70914402EAE29244029B39944400000000000000EF R
(1776443095.403211) can0 1060860D##1020BBF9A4402F1309A4402A3D6994402023A9944028EDF954402C6708C44020000C07F028421914400000000000000E7 R
(1776443095.405439) can0 1860810C##1736E9D3C7320BF41B0F6524072C75240AB0A9E437BD41C3E0C000000000000F3 R
(1776443095.407689) can0 18608B0D##18682A83CD038C041B4CC5240C1F75240283E9E43F3AF293E0D000000000000EB R
(1776443095.437295) can0 107C007D##1C530A363AA4F06F3 T
(1776443095.447825) can0 107D5515##1EA6D700000000AE9 R
(1776443095.452429) can0 1060D515##10100000000010000000001000000000100000000000000E5 R
(1776443095.455228) can0 1060D615##10229D3874402569C884402A7BB87440204878844020000C07F02430F7A44020000C07F020000C07F00000000000000E5 R
(1776443095.457422) can0 1860DB15##13D7FC73CF13EB941B733534044E85340446A9B433781893E15000000000000E9 R
(1776443095.548412) can0 107D550A##1CB913E00000000EB T
(1776443095.569035) can0 107D5517##17C4C700000000AFB R
(1776443095.573584) can0 1060E917##10100000000010000000001000000000100000000000000F7 R
(1776443095.576431) can0 1060EA17##1026CA587440261498844023CB7874402CB2188440280B087440223078844020000C07F020000C07F00000000000000F7 R
(1776443095.578560) can0 1860EF17##1F329E03C92B9BE414E74534070AC524041C39A43F376963E17000000000000FB R
(1776443095.626121) can0 107D550E##16C23700000000AEB R
(1776443095.630703) can0 10608F0E##10100000000010000000001000000000100000000000000E7 R
(1776443095.633633) can0 1060900E##102527C7B44020000C07F020000C07F020000C07F020000C07F020000C07F020000C07F020000C07F00000000000000E7 R
(1776443095.635757) can0 1860950E##12F78A53CD2D3BE41D0595340B2795340A2559E437579373E0E000000000000EB R
(1776443095.699878) can0 107D5518##1AB6E700000000AEA R
(1776443095.704479) can0 1060F318##10100000000010000000001000000000100000000000000E6 R
(1776443095.707371) can0 1060F418##10204F27444020000C07F020000C07F020000C07F020000C07F020000C07F020000C07F020000C07F00000000000000E6 R
(1776443095.709518) can0 1860F918##1165D773CBD19BD410D4B5440B35A534006699C4348209E3E18000000000000EA R
(1776443095.820186) can0 107D550B##15705700000000AF6 R
(1776443095.824768) can0 1060710B##10100000000010000000001000000000100000000000000F2 R
(1776443095.827506) can0 1060720B##1022A6486440283F5894402DDE2874402FCAB874402A8E3874402576B884402A72A954402E806944400000000000000F2 R
(1776443095.829704) can0 1860770B##1AA94AA3DAC3CBF417E065440089B5340DEFE9D436BE50E3E0B000000000000F6 R
(1776443095.831845) can0 107D551F##11653700000000AF5 R
(1776443095.836397) can0 1061391F##101628D3640019484B34001000000000100000000000000F1 R
(1776443095.839267) can0 10613A1F##1029DDA844402A08F844402B2D48444020000C07F020000C07F020000C07F020000C07F02555C784400000000000000F1 R
(1776443095.841539) can0 18613F1F##15F96D03C0200008018D55240AB985340475B9943BFE3CB3E1F000000000000F5 R
(1776443095.875648) can0 1060E10A##10100000000010000000001000000000100000000000000E3 T
(1776443095.881977) can0 10613B0A##10100001041010000000001000000000100000000000000E3 T
(1776443095.935508) can0 107D557D##15A551A0000000AFA T
(1776443095.937303) can0 107C007D##1EFCFAA63AA4F06F4 T
(1776443095.998882) can0 1060870A##10100000000010000000001000000000100000000000000E4 T
(1776443096.034534) can0 1060730A##10100000000010000000001000000000100000000000000E4 T
(1776443096.036652) can0 107D5516##18A59700000000AE9 R
(1776443096.041252) can0 1060DF16##10100000000010000000001000000000100000000000000E5 R
(1776443096.043677) can0 1060EB0A##10100000000010000000001000000000100000000000000E4 T
(1776443096.044137) can0 1060E016##102F7DA7E44020000C07F020000C07F020000C07F020000C07F020000C07F020000C07F020000C07F00000000000000E5 R
(1776443096.046352) can0 1860E516##14705993C5406BE41F77153403EAB534052D69B439A52903E16000000000000E9 R
(1776443096.047046) can0 1060D70A##10100000000010000000001000000000100000000000000E4 T
(1776443096.048153) can0 10607D0A##10100000000010000000001000000000100000000000000E4 T
(1776443096.049883) can0 1060910A##10100000000010000000001000000000100000000000000E4 T
(1776443096.391014) can0 107D550D##10D0B700000000AEC R
(1776443096.393968) can0 107D550C##1352D700000000AF4 R
(1776443096.395918) can0 1060850D##10100000000010000000001000000000100000000000000E8 R
(1776443096.398527) can0 10607B0C##10100000000010000000001000000000100000000000000F0 R
(1776443096.401303) can0 10607C0C##102F93D954402F5518C440212DC8A4402B0868B4402F2EB8E4402B3799144027EDE9244020A33944400000000000000F0 R
(1776443096.404090) can0 1060860D##1026EC29A4402A2269A4402FFDA994402523A99440237F3954402C1698C44020000C07F02EB49914400000000000000E8 R
(1776443096.406339) can0 1860810C##167A49D3C5828BF41780D53404EC05240E31A9E4372BE1C3E0C000000000000F4 R
(1776443096.408580) can0 18608B0D##1095BA73C0935C0414BCC5240069A5240002E9E43BCD8293E0D000000000000EC R
(1776443096.437071) can0 107C007D##11771B263AA4F06F5 T
(1776443096.446098) can0 107D5515##1EB6D700000000AEA R
(1776443096.450687) can0 1060D515##10100000000010000000001000000000100000000000000E6 R
(1776443096.453495) can0 1060D615##102A6DC8744026F9D88440242B8874402017C8844020000C07F0291117A44020000C07F020000C07F00000000000000E6 R
(1776443096.455697) can0 1860DB15##1D51BC63C0540B941EC35534069D9534012739B43BC67893E15000000000000EA R
(1776443096.549108) can0 107D550A##1CC913E00000000EC T
(1776443096.567621) can0 107D5517##17D4C700000000AFC R
(1776443096.572230) can0 1060E917##10100000000010000000001000000000100000000000000F8 R
(1776443096.575003) can0 1060EA17##102F19A874402EE37884402A5AE874402B12888440238B78744025C148844020000C07F020000C07F00000000000000F8 R
(1776443096.577229) can0 1860EF17##18885E13CEDBDBE417F745340978A5240B3D09A43F597963E17000000000000FC R
(1776443096.625977) can0 107D550E##16D23700000000AEC R
(1776443096.630569) can0 10608F0E##10100000000010000000001000000000100000000000000E8 R
(1776443096.633476) can0 1060900E##10229807B44020000C07F020000C07F020000C07F020000C07F020000C07F020000C07F020000C07F00000000000000E8 R
(1776443096.635624) can0 1860950E##1D4FFA33C9ED5BE41CE5C53400862534038569E43C240373E0E000000000000EC R
(1776443096.696964) can0 107D5518##1AC6E700000000AEB R
(1776443096.701587) can0 1060F318##10100000000010000000001000000000100000000000000E7 R
(1776443096.704467) can0 1060F418##10245EC7444020000C07F020000C07F020000C07F020000C07F020000C07F020000C07F020000C07F00000000000000E7 R
(1776443096.706620) can0 1860F918##1AE3B763C2B18BD415F495440D747534044679C43C4229E3E18000000000000EB R
(1776443096.821138) can0 107D550B##15805700000000AF7 R
(1776443096.825728) can0 1060710B##10100000000010000000001000000000100000000000000F3 R
(1776443096.828525) can0 1060720B##102F46386440260008A440201E1874402F0A2874402AFED874402CA5B884402CC32954402E009944400000000000000F3 R
(1776443096.830652) can0 1860770B##1B54AAA3D4243BF4175095440629C5340C3FD9D43B7D40E3E0B000000000000F7 R
(1776443096.832060) can0 107D551F##11753700000000AF6 R
(1776443096.836062) can0 1061391F##1018C8F3640015582B34001000000000100000000000000F2 R
(1776443096.838909) can0 10613A1F##102A8D1844402F596844402A9D78444020000C07F020000C07F020000C07F020000C07F024F6B784400000000000000F2 R
(1776443096.841173) can0 18613F1F##10109CD3C0200008084CF5240F49E534006489943CCE2CB3E1F000000000000F6 R
(1776443096.889362) can0 1060E10A##10100000000010000000001000000000100000000000000E4 T
(1776443096.935899) can0 107D557D##15B551A0000000AFB T
(1776443096.937458) can0 107C007D##14F11BA63AA4F06F6 T
(1776443096.947684) can0 10613B0A##10100001041010000000001000000000100000000000000E4 T
(1776443097.001243) can0 1060870A##10100000000010000000001000000000100000000000000E5 T
(1776443097.005890) can0 1060840A##101800100010001000100010001000180000000F5 T
(1776443097.006412) can0 1060E80A##101000100010001000100010001000180000000FC T
(1776443097.006805) can0 1060D40A##101000100010001000100010001000180000000F7 T
(1776443097.007240) can0 10607A0A##101000100010001000100010001000180000000EC T
(1776443097.016245) can0 10608E0A##101000100010001000100010001000180000000FF T
(1776443097.016957) can0 1060DE0A##101000100010001000100010001000180000000FE T
(1776443097.018689) can0 1060F20A##101000100010001000100010001000180000000E0 T
(1776443097.019187) can0 1060F50A##10100000000010000000001000000000100000000000000FD T
(1776443097.034993) can0 107D5516##18B59700000000AEA R
(1776443097.036660) can0 1060730A##10100000000010000000001000000000100000000000000E5 T
(1776443097.039634) can0 1060DF16##10100000000010000000001000000000100000000000000E6 R
(1776443097.044566) can0 1060E016##10265E37E44020000C07F020000C07F020000C07F020000C07F020000C07F020000C07F020000C07F00000000000000E6 R
(1776443097.046759) can0 1860E516##1C732993C7C05BE419E77534057B15340F0CD9B43A94C903E16000000000000EA R
(1776443097.053423) can0 1060EB0A##10100000000010000000001000000000100000000000000E5 T
(1776443097.056106) can0 1060D70A##10100000000010000000001000000000100000000000000E5 T
(1776443097.056638) can0 10607D0A##10100000000010000000001000000000100000000000000E5 T
(1776443097.057082) can0 1060910A##10100000000010000000001000000000100000000000000E5 T
(1776443097.392082) can0 107D550D##10E0B700000000AED R
(1776443097.393397) can0 107D550C##1362D700000000AF5 R
(1776443097.396584) can0 1060850D##10100000000010000000001000000000100000000000000E9 R
(1776443097.398624) can0 10607B0C##10100000000010000000001000000000100000000000000F1 R
(1776443097.401416) can0 10607C0C##1022442954402454A8C4402ADD38A4402FA808B4402F1E98E4402A77D914402B6DE924402F42F944400000000000000F1 R
(1776443097.404238) can0 1060860D##1024AC39A4402B5239A4402E7DE994402783299440221FD9544025A6A8C44020000C07F02324D914400000000000000E9 R
(1776443097.406461) can0 1860810C##15C5BF33C0C02BF4199095340CFCD52408B1C9E4317CD1C3E0C000000000000F5 R
(1776443097.408687) can0 18608B0D##1E124FB3C4110C041B9C55240D5F7524089339E4340BE293E0D000000000000ED R
(1776443097.437310) can0 107C007D##1F2B3C163AA4F06F7 T
(1776443097.444260) can0 107D5515##1EC6D700000000AEB R
(1776443097.448840) can0 1060D515##10100000000010000000001000000000100000000000000E7 R
(1776443097.451656) can0 1060D615##10220D9874402A69D88440282AF874402A2868844020000C07F02661E7A44020000C07F020000C07F00000000000000E7 R
(1776443097.453771) can0 1860DB15##1A5540D3D90F7B8418A3553404FCA5340A26C9B43218B893E15000000000000EB R
(1776443097.462050) can0 1060840A##101800100010001000100010001000100000000F6 T
(1776443097.462643) can0 1060E80A##101000100010001000100010001000100000000FD T
(1776443097.463244) can0 1060D40A##101000100010001000100010001000100000000F8 T
(1776443097.463659) can0 10607A0A##101000100010001000100010001000100000000ED T
(1776443097.471997) can0 10608E0A##101000100010001000100010001000100000000E0 T
(1776443097.472514) can0 1060DE0A##101000100010001000100010001000100000000FF T
(1776443097.473053) can0 1060F20A##101000100010001000100010001000100000000E1 T
(1776443097.548614) can0 107D550A##1CD913E00000000ED T
(1776443097.566218) can0 107D5517##17E4C700000000AFD R
(1776443097.570790) can0 1060E917##10100000000010000000001000000000100000000000000F9 R
(1776443097.573524) can0 1060EA17##102A77F874402BC3E88440246A88744029628884402ABB4874402B9138844020000C07F020000C07F00000000000000F9 R
(1776443097.575736) can0 1860EF17##1CD21E23C429EBE41CE655340048E524011B29A432377963E17000000000000FD R
(1776443097.625994) can0 107D550E##16E23700000000AED R
(1776443097.630599) can0 10608F0E##10100000000010000000001000000000100000000000000E9 R
(1776443097.633462) can0 1060900E##1023B827B44020000C07F020000C07F020000C07F020000C07F020000C07F020000C07F020000C07F00000000000000E9 R
(1776443097.635622) can0 1860950E##1CF71B13CE8D0BE41326153405F6D53409E549E43034E373E0E000000000000ED R
(1776443097.639525) can0 1060E717##101800100010001000100010001000100000000FA R
(1776443097.694102) can0 107D5518##1AD6E700000000AEC R
(1776443097.698655) can0 1060F318##10100000000010000000001000000000100000000000000E8 R
(1776443097.701580) can0 1060F418##102DAF37444020000C07F020000C07F020000C07F020000C07F020000C07F020000C07F020000C07F00000000000000E8 R
(1776443097.703784) can0 1860F918##11A4B733C4F1BBD41F7505440DC5D534008689C4316189E3E18000000000000EC R
(1776443097.822075) can0 107D550B##15905700000000AF8 R
(1776443097.826661) can0 1060710B##10100000000010000000001000000000100000000000000F4 R
(1776443097.829422) can0 1060720B##10296528644025DFA8944026EED874402C3AB874402EDEE874402877D88440218379544024B0C944400000000000000F4 R
(1776443097.830821) can0 107D551F##11853700000000AF7 R
(1776443097.832833) can0 1061391F##1017994364001C685B34001000000000100000000000000F3 R
(1776443097.835064) can0 1860770B##127A0AA3D673EBF41BB125440339C5340FDF39D4319D30E3E0B000000000000F8 R
(1776443097.837874) can0 10613A1F##1027BCB844402659B844402ECD48444020000C07F020000C07F020000C07F020000C07F026E65784400000000000000F3 R
(1776443097.840168) can0 18613F1F##1E1CDCE3C0200008070D5524075935340A54F99438FF8CB3E1F000000000000F7 R
(1776443097.935500) can0 107D557D##15C551A0000000AFC T
(1776443097.937267) can0 107C007D##17E54C963AA4F06F8 T
(1776443097.949607) can0 1060E10A##10100000000010000000001000000000100000000000000E5 T
(1776443097.951370) can0 10613B0A##10100001041010000000001000000000100000000000000E5 T
(1776443098.007166) can0 1060870A##10100000000010000000001000000000100000000000000E6 T
(1776443098.033193) can0 107D5516##18C59700000000AEB R
(1776443098.037818) can0 1060DF16##10100000000010000000001000000000100000000000000E7 R
(1776443098.040705) can0 1060E016##102F1E17E44020000C07F020000C07F020000C07F020000C07F020000C07F020000C07F020000C07F00000000000000E7 R
(1776443098.040923) can0 1060730A##10100000000010000000001000000000100000000000000E6 T
(1776443098.042932) can0 1860E516##1A5399A3C9105BE411E7B53402FAC53405DD09B43174C903E16000000000000EB R
(1776443098.055532) can0 1060EB0A##10100000000010000000001000000000100000000000000E6 T
(1776443098.058448) can0 1060D70A##10100000000010000000001000000000100000000000000E6 T
(1776443098.059553) can0 10607D0A##10100000000010000000001000000000100000000000000E6 T
(1776443098.059944) can0 1060910A##10100000000010000000001000000000100000000000000E6 T
(1776443098.180484) can0 1060700A##101800100010001000180010001000180000000F9 T
(1776443098.392285) can0 107D550C##1372D700000000AF6 R
(1776443098.393647) can0 107D550D##10F0B700000000AEE R
(1776443098.396891) can0 10607B0C##10100000000010000000001000000000100000000000000F2 R
(1776443098.399662) can0 10607C0C##102AD3F95440281508C4402C2CD8A44026B868B4402AAE08E4402D878914402FCE2924402B836944400000000000000F2 R
(1776443098.401687) can0 1060850D##10100000000010000000001000000000100000000000000EA R
(1776443098.404471) can0 1060860D##1026EC59A4402AD229A440216E09944023B3199440287E4954402E16B8C44020000C07F020E4F914400000000000000EA R
(1776443098.406705) can0 1860810C##17C669D3C8727BF414B015340B9CE524042199E4307B61C3E0C000000000000F6 R
(1776443098.408926) can0 18608B0D##110FCA73CFC3CC04108C7524046095340AB349E4388F4293E0D000000000000EE R
(1776443098.437155) can0 107C007D##173F5D063AA4F06F9 T
(1776443098.442306) can0 107D5515##1ED6D700000000AEC R
(1776443098.446906) can0 1060D515##10100000000010000000001000000000100000000000000E8 R
(1776443098.449721) can0 1060D615##102C0D6874402529A88440235BA874402A2808844020000C07F02291C7A44020000C07F020000C07F00000000000000E8 R
(1776443098.451925) can0 1860DB15##1B8ACC73C3E3FB941D62853403BD953402C709B43AC83893E15000000000000EC R
(1776443098.548401) can0 107D550A##1CE913E00000000EE T
(1776443098.555401) can0 1061380A##101000100010001000100010001000100000000F2 T
(1776443098.564644) can0 107D5517##17F4C700000000AFE R
(1776443098.569251) can0 1060E917##10100000000010000000001000000000100000000000000FA R
(1776443098.571978) can0 1060EA17##102C18C8744024841884402DFB3874402942C8844025EB6874402001A8844020000C07F020000C07F00000000000000FA R
(1776443098.574199) can0 1860EF17##13B6BE03C8BB0BE4101605340A9985240DBC59A43F380963E17000000000000FE R
(1776443098.625982) can0 107D550E##16F23700000000AEE R
(1776443098.630562) can0 10608F0E##10100000000010000000001000000000100000000000000EA R
(1776443098.633474) can0 1060900E##10299867B44020000C07F020000C07F020000C07F020000C07F020000C07F020000C07F020000C07F00000000000000EA R
(1776443098.635611) can0 1860950E##1C155A33C60D0BE41346553407B72534032529E43BB3D373E0E000000000000EE R
(1776443098.691145) can0 107D5518##1AE6E700000000AED R
(1776443098.695757) can0 1060F318##10100000000010000000001000000000100000000000000E9 R
(1776443098.698641) can0 1060F418##1028EF97444020000C07F020000C07F020000C07F020000C07F020000C07F020000C07F020000C07F00000000000000E9 R
(1776443098.700803) can0 1860F918##1597A783C8613BD41593C54408B5253405A629C43EB379E3E18000000000000ED R
(1776443098.823010) can0 107D550B##15A05700000000AF9 R
(1776443098.827598) can0 1060710B##10100000000010000000001000000000100000000000000F5 R
(1776443098.828990) can0 107D551F##11953700000000AF8 R
(1776443098.831760) can0 1060720B##102E34586440207F88944029DDE874402BAA6874402A4E0874402F26E884402773E95440291FD934400000000000000F5 R
(1776443098.833783) can0 1061391F##101E68D3640015F81B34001000000000100000000000000F4 R
(1776443098.836637) can0 10613A1F##1023FCA844402DF9B84440232D08444020000C07F020000C07F020000C07F020000C07F02BE52784400000000000000F4 R
(1776443098.838855) can0 1860770B##11560AA3DA539BF41FD0654406DBA5340A4F89D4371D20E3E0B000000000000F9 R
(1776443098.841121) can0 18613F1F##1F7A2CD3C0200008021D1524093A85340A54D9943A1E6CB3E1F000000000000F8 R
(1776443098.935988) can0 107D557D##15D551A0000000AFD T
(1776443098.937817) can0 107C007D##12396D863AA4F06FA T
(1776443098.958395) can0 1060E10A##10100000000010000000001000000000100000000000000E6 T
(1776443099.008880) can0 10613B0A##10100001041010000000001000000000100000000000000E6 T
(1776443099.010602) can0 1060870A##10100000000010000000001000000000100000000000000E7 T
(1776443099.031528) can0 107D5516##18D59700000000AEC R
(1776443099.036130) can0 1060DF16##10100000000010000000001000000000100000000000000E8 R
(1776443099.039003) can0 1060E016##102E5D07E44020000C07F020000C07F020000C07F020000C07F020000C07F020000C07F020000C07F00000000000000E8 R
(1776443099.041235) can0 1860E516##13AE0983CC105BE416D62534039AC5340E1C59B434041903E16000000000000EC R
(1776443099.051291) can0 1060730A##10100000000010000000001000000000100000000000000E7 T
(1776443099.057272) can0 1060EB0A##10100000000010000000001000000000100000000000000E7 T
(1776443099.060256) can0 1060D70A##10100000000010000000001000000000100000000000000E7 T
(1776443099.061560) can0 10607D0A##10100000000010000000001000000000100000000000000E7 T
(1776443099.061893) can0 1060910A##10100000000010000000001000000000100000000000000E7 T
(1776443099.392039) can0 107D550C##1382D700000000AF7 R
(1776443099.395149) can0 107D550D##1100B700000000AEF R
(1776443099.397157) can0 10607B0C##10100000000010000000001000000000100000000000000F3 R
(1776443099.399716) can0 1060850D##10100000000010000000001000000000100000000000000EB R
(1776443099.402521) can0 10607C0C##1021D38954402B44D8C4402FFDF8A440297848B440268E88E44023269914402CCDD924402C839944400000000000000F3 R
(1776443099.405339) can0 1060860D##1029CA99A4402F9209A440203E1994402D739994402BCDE95440254698C44020000C07F020D28914400000000000000EB R
(1776443099.407559) can0 1860810C##1A0029F3CF427BF4101015340F2D352404A179E43CC9F1C3E0C000000000000F7 R
(1776443099.409792) can0 18608B0D##11079A53CFC40C04122DC5240BCF75240773B9E438CC9293E0D000000000000EF R
(1776443099.437689) can0 107C007D##1D939E063AA4F06FB T
(1776443099.441563) can0 107D5515##1EE6D700000000AED R
(1776443099.445225) can0 1060D515##10100000000010000000001000000000100000000000000E9 R
(1776443099.448058) can0 1060D615##10221DD874402B58E884402FBB2874402297D8844020000C07F0209167A44020000C07F020000C07F00000000000000E9 R
(1776443099.450265) can0 1860DB15##17ED9C53C1842B941E1315340A8DC5340736A9B43777B893E15000000000000ED R
(1776443099.548596) can0 107D550A##1CF913E00000000EF T
(1776443099.563180) can0 107D5517##1804C700000000AFF R
(1776443099.567789) can0 1060E917##10100000000010000000001000000000100000000000000FB R
(1776443099.570581) can0 1060EA17##1027C8D8744024F44884402C6B3874402271B884402BDAF874402D71B8844020000C07F020000C07F00000000000000FB R
(1776443099.572726) can0 1860EF17##117A2E03CADB2BE413F6D53401E965240C1BB9A43A18B963E17000000000000FF R
(1776443099.625926) can0 107D550E##17023700000000AEF R
(1776443099.630509) can0 10608F0E##10100000000010000000001000000000100000000000000EB R
(1776443099.633445) can0 1060900E##102208C7B44020000C07F020000C07F020000C07F020000C07F020000C07F020000C07F020000C07F00000000000000EB R
(1776443099.635565) can0 1860950E##16D16A43C78DBBE41DD645340626D5340EE5A9E43FD61373E0E000000000000EF R
(1776443099.688323) can0 107D5518##1AF6E700000000AEE R
(1776443099.692919) can0 1060F318##10100000000010000000001000000000100000000000000EA R
(1776443099.695755) can0 1060F418##102D0F27444020000C07F020000C07F020000C07F020000C07F020000C07F020000C07F020000C07F00000000000000EA R
(1776443099.697969) can0 1860F918##1D750783CB817BD41474154401D6353404E679C43F41D9E3E18000000000000EE R
(1776443099.823996) can0 107D550B##15B05700000000AFA R
(1776443099.826896) can0 107D551F##11A53700000000AF9 R
(1776443099.828913) can0 1060710B##10100000000010000000001000000000100000000000000F6 R
(1776443099.831505) can0 1061391F##1010290364001F582B34001000000000100000000000000F5 R
(1776443099.834252) can0 1060720B##102534586440294F289440273EF87440248A187440252E68744021D5E8844020739954402E50D944400000000000000F6 R
(1776443099.837107) can0 10613A1F##10256CD844402EE9784440277D68444020000C07F020000C07F020000C07F020000C07F02D458784400000000000000F5 R
(1776443099.839314) can0 1860770B##10F2DAA3DC33BBF418C115440499C53406AFF9D43A2070F3E0B000000000000FA R
(1776443099.841592) can0 18613F1F##18839CE3C02000080E5D5524024A653400D4A9943F8F8CB3E1F000000000000F9 R
(1776443099.935519) can0 107D557D##15E551A0000000AFE T
(1776443099.937469) can0 107C007D##179DAE763AA4F06FC T
(1776443099.964875) can0 1060E10A##10100000000010000000001000000000100000000000000E7 T
(1776443100.012713) can0 10613B0A##10100001041010000000001000000000100000000000000E7 T
(1776443100.013076) can0 1060870A##10100000000010000000001000000000100000000000000E8 T
(1776443100.029838) can0 107D5516##18E59700000000AED R
(1776443100.034448) can0 1060DF16##10100000000010000000001000000000100000000000000E9 R
(1776443100.037337) can0 1060E016##102F3DE7E44020000C07F020000C07F020000C07F020000C07F020000C07F020000C07F020000C07F00000000000000E9 R
(1776443100.039542) can0 1860E516##18549993C7309BE418E7653402FAC5340D0CF9B438B3E903E16000000000000ED R
(1776443100.052672) can0 1060730A##10100000000010000000001000000000100000000000000E8 T
(1776443100.058379) can0 1060EB0A##10100000000010000000001000000000100000000000000E8 T
(1776443100.061952) can0 1060D70A##10100000000010000000001000000000100000000000000E8 T
(1776443100.062747) can0 10607D0A##10100000000010000000001000000000100000000000000E8 T
(1776443100.062950) can0 1060910A##10100000000010000000001000000000100000000000000E8 T
(1776443100.222736) can0 1060D315##101000100010001000100018001000100000000FF R
(1776443100.391619) can0 107D550C##1392D700000000AF8 R
(1776443100.395175) can0 107D550D##1110B700000000AF0 R
(1776443100.397209) can0 10607B0C##10100000000010000000001000000000100000000000000F4 R
(1776443100.399776) can0 1060850D##10100000000010000000001000000000100000000000000EC R
(1776443100.402586) can0 10607C0C##102932F9544020E3E8C440250DB8A4402D0908B4402D2038F4402BB79914402E6D89244022920944400000000000000F4 R
(1776443100.405377) can0 1060860D##102F1B89A440280299A44025DD1994402303B99440202F3954402D8608C44020000C07F02BC38914400000000000000EC R
(1776443100.407637) can0 1860810C##10D529D3CE023BF419504534073CB52405F189E43FCDA1C3E0C000000000000F8 R
(1776443100.409839) can0 18608B0D##1EEB8A63CFA3EC041A3CC5240BD145340F8419E4341B4293E0D000000000000F0 R
(1776443100.437335) can0 107C007D##1BD7AEF63AA4F06FD T
(1776443100.438888) can0 107D5515##1EF6D700000000AEE R
(1776443100.443471) can0 1060D515##10100000000010000000001000000000100000000000000EA R
(1776443100.446258) can0 1060D615##10292D98744024C908844023EB487440289768844020000C07F0207127A44020000C07F020000C07F00000000000000EA R
(1776443100.448464) can0 1860DB15##1583DC63C7944B9416D3C53408AB9534010749B43508B893E15000000000000EE R
(1776443100.561698) can0 107D5517##1814C700000000AE0 R
(1776443100.566275) can0 1060E917##10100000000010000000001000000000100000000000000FC R
(1776443100.569086) can0 1060EA17##102E385874402543B8844024BBB874402EC1B8844024FB1874402A81A8844020000C07F020000C07F00000000000000FC R
(1776443100.571319) can0 1860EF17##1847AE23CBAB0BE41D16D5340B89B524004C09A438D86963E17000000000000E0 R
(1776443100.625987) can0 107D550E##17123700000000AF0 R
(1776443100.627625) can0 107D550A##1D0913E00000000F0 T
(1776443100.630548) can0 10608F0E##10100000000010000000001000000000100000000000000EC R
(1776443100.633446) can0 1060900E##102BF717B44020000C07F020000C07F020000C07F020000C07F020000C07F020000C07F020000C07F00000000000000EC R
(1776443100.637099) can0 1860950E##13262A53C0DDDBE4110615340CD785340C3509E43E543373E0E000000000000F0 R
(1776443100.685375) can0 107D5518##1B06E700000000AEF R
(1776443100.689960) can0 1060F318##10100000000010000000001000000000100000000000000EB R
(1776443100.692873) can0 1060F418##10285EA7444020000C07F020000C07F020000C07F020000C07F020000C07F020000C07F020000C07F00000000000000EB R
(1776443100.695051) can0 1860F918##132A57A3C0A20BD41F54A5440484B5340B56D9C43B7299E3E18000000000000EF R
(1776443100.824339) can0 107D551F##11B53700000000AFA R
(1776443100.825715) can0 107D550B##15C05700000000AFB R
(1776443100.828962) can0 1061391F##101E490364001A083B34001000000000100000000000000F6 R
(1776443100.830912) can0 1060710B##10100000000010000000001000000000100000000000000F7 R
(1776443100.833705) can0 1060720B##1022A4F8644024AF38944026BEE8744024B9F874402ACE3874402786C884402D9459544022708944400000000000000F7 R
(1776443100.836550) can0 10613A1F##10282CA844402399384440270CF8444020000C07F020000C07F020000C07F020000C07F02E658784400000000000000F6 R
(1776443100.838775) can0 1860770B##1B989AA3D583FBF413A025440D99553408BFF9D43AFC40E3E0B000000000000FB R
(1776443100.841044) can0 18613F1F##1C032D03C020000804FC45240DF985340494C99439FE2CB3E1F000000000000FA R
(1776443100.935742) can0 107D557D##15F551A0000000AFF T
(1776443100.937736) can0 107C007D##1571BF763AA4F06FE T
(1776443100.975597) can0 1060E10A##10100000000010000000001000000000100000000000000E8 T
(1776443101.016768) can0 10613B0A##10100001041010000000001000000000100000000000000E8 T
(1776443101.017533) can0 1060870A##10100000000010000000001000000000100000000000000E9 T
(1776443101.028249) can0 107D5516##18F59700000000AEE R
(1776443101.032888) can0 1060DF16##10100000000010000000001000000000100000000000000EA R
(1776443101.035797) can0 1060E016##10273D37E44020000C07F020000C07F020000C07F020000C07F020000C07F020000C07F020000C07F00000000000000EA R
(1776443101.037999) can0 1860E516##14999993C740BBE41F37A5340F59F53402FD89B431E65903E16000000000000EE R
(1776443101.054914) can0 1060730A##10100000000010000000001000000000100000000000000E9 T
(1776443101.060357) can0 1060EB0A##10100000000010000000001000000000100000000000000E9 T
(1776443101.063849) can0 1060D70A##10100000000010000000001000000000100000000000000E9 T
(1776443101.066042) can0 10607D0A##10100000000010000000001000000000100000000000000E9 T
(1776443101.066396) can0 1060910A##10100000000010000000001000000000100000000000000E9 T
(1776443101.391352) can0 107D550C##13A2D700000000AF9 R
(1776443101.395934) can0 10607B0C##10100000000010000000001000000000100000000000000F5 R
(1776443101.398674) can0 10607C0C##102A631954402543B8C44029ACA8A44023F838B44022DFA8E44025E799144025CD3924402352F944400000000000000F5 R
(1776443101.400709) can0 1060850D##10100000000010000000001000000000100000000000000ED R
(1776443101.402105) can0 107D550D##1120B700000000AF1 R
(1776443101.404922) can0 1060860D##102E5BB9A4402EA299A440263DB99440288449944027AEC954402CF5C8C44020000C07F020E4E914400000000000000ED R
(1776443101.407124) can0 1860810C##1F0D99E3C8424BF41070853402BDC5240AE119E43D7FB1C3E0C000000000000F9 R
(1776443101.409340) can0 18608B0D##1B990A73C9A3BC04182CC5240E2155340C6309E4369CE293E0D000000000000F1 R
(1776443101.436886) can0 107D5515##1F06D700000000AEF R
(1776443101.438852) can0 107C007D##108BEFE63AA4F06FF T
(1776443101.441457) can0 1060D515##10100000000010000000001000000000100000000000000EB R
(1776443101.445758) can0 1060D615##102EFDA874402A09E884402CDAE8744023E798844020000C07F0223107A44020000C07F020000C07F00000000000000EB R
(1776443101.447961) can0 1860DB15##195A9C63CB340B941922B534060CA5340436A9B43D581893E15000000000000EF R
(1776443101.507947) can0 1C7D560A##12A0000000114700073007A007D00840087008E009100D400D700DE00E100E800EB00F200F50038013B01551D561D3A000000011C6F007100720079007B007CA8 T
(1776443101.508160) can0 1C7D560A##1008300850086008D008F009000D300D500D600DD00DF00E000E700E900EA00F100F300F400370139013A01551D40000000000000000000000000000000000008 T
(1776443101.508545) can0 1C7D560A##100000000000000000000000000000000000000000000000000000000000000000000000000000000000000000000000000004000000000000000000000000028 T
(1776443101.508850) can0 1C7D560A##100000000000000000000000000000000000000000000000000000000000000000000000000000003000000004000000000000000000000000000000000015348 T
(1776443101.549357) can0 107D550A##1D1913E00000000F1 T
(1776443101.560307) can0 107D5517##1824C700000000AE1 R
(1776443101.564893) can0 1060E917##10100000000010000000001000000000100000000000000FD R
(1776443101.567628) can0 1060EA17##1026F95874402193A8844024BA8874402F118884402E9BB8744020D108844020000C07F020000C07F00000000000000FD R
(1776443101.569859) can0 1860EF17##188EBE13CECADBE4169705340DE9F52400FB69A436780963E17000000000000E1 R
(1776443101.626014) can0 107D550E##17223700000000AF1 R
(1776443101.630575) can0 10608F0E##10100000000010000000001000000000100000000000000ED R
(1776443101.633513) can0 1060900E##1024B827B44020000C07F020000C07F020000C07F020000C07F020000C07F020000C07F020000C07F00000000000000ED R
(1776443101.635640) can0 1860950E##165CDA33C69D7BE41F9675340E3795340AC569E43993D373E0E000000000000F1 R
(1776443101.682368) can0 107D5518##1B16E700000000AF0 R
(1776443101.687010) can0 1060F318##10100000000010000000001000000000100000000000000EC R
(1776443101.689867) can0 1060F418##102D2E67444020000C07F020000C07F020000C07F020000C07F020000C07F020000C07F020000C07F00000000000000EC R
(1776443101.692014) can0 1860F918##1D0DC783CD31EBD416D5054405C6D534024669C4320339E3E18000000000000F0 R
(1776443101.822869) can0 107D551F##11C53700000000AFB R
(1776443101.825950) can0 107D550B##15D05700000000AFC R
(1776443101.827973) can0 1061391F##10105903640011785B34001000000000100000000000000F7 R
(1776443101.830563) can0 1060710B##10100000000010000000001000000000100000000000000F8 R
(1776443101.833365) can0 1060720B##10270568644027DF7894402D5DA8744024E9F874402B5E78744027F60884402E43895440281FF934400000000000000F8 R
(1776443101.836202) can0 10613A1F##102A1CB84440243998444022AD68444020000C07F020000C07F020000C07F020000C07F027B56784400000000000000F7 R
(1776443101.838406) can0 1860770B##1805EAA3D913DBF410F1054403A9D534078FB9D43BBDB0E3E0B000000000000FC R
(1776443101.840683) can0 18613F1F##14133CE3C0200008076C152404CAF5340234D99436EEDCB3E1F000000000000FB R
(1776443101.934880) can0 1C7D567D##10C0000000105001C551D561DE51FE61F78000000013B6F007000710072007300770079007A007B007C007D008100830084008500860087008B008D008E008FAE T
(1776443101.935063) can0 1C7D567D##100900091009500D300D400D500D600D700DB00DD00DE00DF00E000E100E500E700E800E900EA00EB00EF00F100F200F300F400F500F9003701380139013A010E T
(1776443101.935318) can0 1C7D567D##13B013F01001C551DE51FE61FF81F400000000000000000000000000000000000000000000000000000000000000000000000000000000000000000000000002E T
(1776443101.935368) can0 1C7D567D##10000000000000000000000000000000000000040000000000000000000000000000000000000000000000000000000000000000000000000000000000000000E T
(1776443101.935456) can0 1C7D567D##100000000000000000300E00300400000000000000000000000000000001C5B6E T
(1776443101.936007) can0 107D557D##160551A0000000AE0 T
(1776443101.937690) can0 107C007D##184630664AA4F06E0 T
(1776443101.983968) can0 1060E10A##10100000000010000000001000000000100000000000000E9 T
(1776443102.009402) can0 1060840A##101800100010001000100010001000180000000F7 T
(1776443102.010086) can0 1060E80A##101000100010001000100010001000180000000FE T
(1776443102.010712) can0 1060D40A##101000100010001000100010001000180000000F9 T
(1776443102.011366) can0 10607A0A##101000100010001000100010001000180000000EE T
(1776443102.021243) can0 10608E0A##101000100010001000100010001000180000000E1 T
(1776443102.023571) can0 1060DE0A##101000100010001000100010001000180000000E0 T
(1776443102.024089) can0 1060F20A##101000100010001000100010001000180000000E2 T
(1776443102.024588) can0 10613B0A##10100001041010000000001000000000100000000000000E9 T
(1776443102.025131) can0 1060870A##10100000000010000000001000000000100000000000000EA T
(1776443102.034493) can0 1060DF16##10100000000010000000001000000000100000000000000EB R
(1776443102.037406) can0 1060E016##10235DE7E44020000C07F020000C07F020000C07F020000C07F020000C07F020000C07F020000C07F00000000000000EB R
(1776443102.038817) can0 107D5516##19059700000000AEF R
(1776443102.041570) can0 1860E516##1B3B2983C9701BE41F56B534026AC534032C59B43D530903E16000000000000EF R
(1776443102.056775) can0 1060730A##10100000000010000000001000000000100000000000000EA T
(1776443102.061835) can0 1060EB0A##10100000000010000000001000000000100000000000000EA T
(1776443102.066642) can0 1060D70A##10100000000010000000001000000000100000000000000EA T
(1776443102.068080) can0 10607D0A##10100000000010000000001000000000100000000000000EA T
(1776443102.068351) can0 1060910A##10100000000010000000001000000000100000000000000EA T
(1776443102.391034) can0 107D550C##13B2D700000000AFA R
(1776443102.395612) can0 10607B0C##10100000000010000000001000000000100000000000000F6 R
(1776443102.398422) can0 10607C0C##102E237954402ED438C4402E9D08A44025D848B440237ED8E440204839144021DD3924402EA3C944400000000000000F6 R
(1776443102.399745) can0 107D550D##1130B700000000AF2 R
(1776443102.401784) can0 1060850D##10100000000010000000001000000000100000000000000EE R
(1776443102.404032) can0 1860810C##131E0F43CA201BF416609534035DA52409A1B9E4374B91C3E0C000000000000FA R
(1776443102.406820) can0 1060860D##102D2A99A4402CA1D9A4402DBDE994402A1419944027AF59544027B688C44020000C07F021B40914400000000000000EE R
(1776443102.409064) can0 18608B0D##11AC7FB3C6617C0416AD55240C012534092389E431FE2293E0D000000000000F2 R
(1776443102.434950) can0 107D5515##1F16D700000000AF0 R
(1776443102.437758) can0 107C007D##11A000E64AA4F06E1 T
(1776443102.439486) can0 1060D515##10100000000010000000001000000000100000000000000EC R
(1776443102.442301) can0 1060D615##1027CD9874402519888440219AE874402B67A8844020000C07F0202187A44020000C07F020000C07F00000000000000EC R
(1776443102.445982) can0 1860DB15##175720D3D78EAB841E7275340F9CC5340E7669B43E36E893E15000000000000F0 R
(1776443102.466272) can0 1060840A##101800100010001000100010001000100000000F8 T
(1776443102.474558) can0 1060E80A##101000100010001000100010001000100000000FF T
(1776443102.475334) can0 1060D40A##101000100010001000100010001000100000000FA T
(1776443102.476081) can0 10607A0A##101000100010001000100010001000100000000EF T
(1776443102.485343) can0 10608E0A##101000100010001000100010001000100000000E2 T
(1776443102.486147) can0 1060DE0A##101000100010001000100010001000100000000E1 T
(1776443102.486627) can0 1060F20A##101000100010001000100010001000100000000E3 T
(1776443102.549092) can0 107D550A##1D2913E00000000F2 T
(1776443102.558809) can0 107D5517##1834C700000000AE2 R
(1776443102.563388) can0 1060E917##10100000000010000000001000000000100000000000000FE R
(1776443102.566153) can0 1060EA17##1026785874402092D88440213B5874402422A88440257BE874402AF0F8844020000C07F020000C07F00000000000000FE R
(1776443102.568340) can0 1860EF17##1EC0EE23C70A3BE4183655340D88452405EBB9A43D1A0963E17000000000000E2 R
(1776443102.610254) can0 10606F0B##101000100018001000180010001800100000000FC R
(1776443102.625951) can0 107D550E##17323700000000AF2 R
(1776443102.630561) can0 10608F0E##10100000000010000000001000000000100000000000000EE R
(1776443102.633460) can0 1060900E##102AC7A7B44020000C07F020000C07F020000C07F020000C07F020000C07F020000C07F020000C07F00000000000000EE R
(1776443102.635694) can0 1860950E##15CD0BD3CC6D0BE4101635340C263534030569E437D3A373E0E000000000000F2 R
(1776443102.679318) can0 107D5518##1B26E700000000AF1 R
(1776443102.683904) can0 1060F318##10100000000010000000001000000000100000000000000ED R
(1776443102.686837) can0 1060F418##1025DEE7444020000C07F020000C07F020000C07F020000C07F020000C07F020000C07F020000C07F00000000000000ED R
(1776443102.689025) can0 1860F918##1836A7D3CB119BD4181505440194A5340275E9C4389509E3E18000000000000F1 R
(1776443102.751378) can0 1060830D##101000100010001000180010001000100000000F0 R
(1776443102.821547) can0 107D551F##11D53700000000AFC R
(1776443102.826134) can0 1061391F##101FA70364001F283B34001000000000100000000000000F8 R
(1776443102.827484) can0 107D550B##15E05700000000AFD R
(1776443102.830344) can0 10613A1F##10268D1844402CB9884440287D48444020000C07F020000C07F020000C07F020000C07F02F259784400000000000000F8 R
(1776443102.832368) can0 1060710B##10100000000010000000001000000000100000000000000F9 R
(1776443102.835175) can0 1060720B##1023B40864402EFF48944022DE48744022EA2874402CFE2874402B163884402A02F9544027603944400000000000000F9 R
(1776443102.837372) can0 1860770B##1CC84AA3DFF39BF41D2075440EEAD53407CFB9D43301C0F3E0B000000000000FD R
(1776443102.839649) can0 18613F1F##157FECF3C020000809BCB5240C39D534012509943D4F5CB3E1F000000000000FC R
(1776443102.935892) can0 107D557D##161551A0000000AE1 T
(1776443102.937769) can0 107C007D##17EA11564AA4F06E2 T
(1776443102.992718) can0 1060E10A##10100000000010000000001000000000100000000000000EA T
(1776443103.025290) can0 107D5516##19159700000000AF0 R
(1776443103.029339) can0 10613B0A##10100001041010000000001000000000100000000000000EA T
(1776443103.029730) can0 1060DD16##101000100010001000100010001000100000000E8 R
(1776443103.031226) can0 1060870A##10100000000010000000001000000000100000000000000EB T
(1776443103.031899) can0 1060DF16##10100000000010000000001000000000100000000000000EC R
(1776443103.034805) can0 1060E016##102F5E97E44020000C07F020000C07F020000C07F020000C07F020000C07F020000C07F020000C07F00000000000000EC R
(1776443103.041071) can0 1860E516##116769A3CB1FFBD417277534039AC534024CB9B434A3D903E16000000000000F0 R
(1776443103.093628) can0 1060730A##10100000000010000000001000000000100000000000000EB T
(1776443103.094200) can0 1060EB0A##10100000000010000000001000000000100000000000000EB T
(1776443103.101221) can0 1060D70A##10100000000010000000001000000000100000000000000EB T
(1776443103.101491) can0 10607D0A##10100000000010000000001000000000100000000000000EB T
(1776443103.101803) can0 1060910A##10100000000010000000001000000000100000000000000EB T
(1776443103.192748) can0 1060700A##101800100010001000180010001000180000000FA T
(1776443103.390831) can0 107D550C##13C2D700000000AFB R
(1776443103.395390) can0 10607B0C##10100000000010000000001000000000100000000000000F7 R
(1776443103.398155) can0 10607C0C##1026F249544024F558C44026BDB8A4402A7828B440210E78E44027578914402B7C6924402DF44944400000000000000F7 R
(1776443103.399563) can0 107D550D##1140B700000000AF3 R
(1776443103.401800) can0 1860810C##1BE319E3C8022BF41C30053408AEC524065199E43A2D21C3E0C000000000000FB R
(1776443103.403813) can0 1060850D##10100000000010000000001000000000100000000000000EF R
(1776443103.406637) can0 1060860D##10264BB9A4402B41A9A440271E1994402F93A994402E4EC954402AE5B8C44020000C07F023927914400000000000000EF R
(1776443103.408815) can0 18608B0D##1324AA63C3634C04157BE5240A2185340F4389E4328C4293E0D000000000000F3 R
(1776443103.432829) can0 107D5515##1F26D700000000AF1 R
(1776443103.437437) can0 1060D515##10100000000010000000001000000000100000000000000ED R
(1776443103.437860) can0 107C007D##1A9421D64AA4F06E3 T
(1776443103.440246) can0 1060D615##1024EE1874402428C88440275AE874402597A8844020000C07F029B177A44020000C07F020000C07F00000000000000ED R
(1776443103.443900) can0 1860DB15##1D313C63CCB39B941C41C53406BE8534064769B43147D893E15000000000000F1 R
(1776443103.548564) can0 107D550A##1D3913E00000000F3 T
(1776443103.557349) can0 107D5517##1844C700000000AE3 R
(1776443103.561922) can0 1060E917##10100000000010000000001000000000100000000000000FF R
(1776443103.564686) can0 1060EA17##102969B874402053688440250CD874402AD2688440230BA8744023E1A8844020000C07F020000C07F00000000000000FF R
(1776443103.566901) can0 1860EF17##1EDEFE03C7BB1BE4106695340E0995240BBBA9A43559A963E17000000000000E3 R
(1776443103.570338) can0 1061380A##101000100010001000100010001000100000000F3 T
(1776443103.626061) can0 107D550E##17423700000000AF3 R
(1776443103.630660) can0 10608F0E##10100000000010000000001000000000100000000000000EF R
(1776443103.633566) can0 1060900E##102CC907B44020000C07F020000C07F020000C07F020000C07F020000C07F020000C07F020000C07F00000000000000EF R
(1776443103.635710) can0 1860950E##1F0DBA33C91DDBE413C6E53400279534017569E436851373E0E000000000000F3 R
(1776443103.676323) can0 107D5518##1B36E700000000AF2 R
(1776443103.680743) can0 1060F118##101800100010001000100010001000100000000E5 R
(1776443103.682812) can0 1060F318##10100000000010000000001000000000100000000000000EE R
(1776443103.685746) can0 1060F418##10253E97444020000C07F020000C07F020000C07F020000C07F020000C07F020000C07F020000C07F00000000000000EE R
(1776443103.687952) can0 1860F918##12A60793CE71EBD41214B5440B75D53404E699C430D129E3E18000000000000F2 R
(1776443103.820088) can0 107D551F##11E53700000000AFD R
(1776443103.824633) can0 1061391F##101336C3640014984B34001000000000100000000000000F9 R
(1776443103.827445) can0 10613A1F##1020FD5844402128E84440246D48444020000C07F020000C07F020000C07F020000C07F02415C784400000000000000F9 R
(1776443103.828861) can0 107D550B##15F05700000000AFE R
(1776443103.831159) can0 18613F1F##17FAFCD3C02000080FDD75240059B534045449943E6D6CB3E1F000000000000FD R
(1776443103.833228) can0 1060710B##10100000000010000000001000000000100000000000000FA R
(1776443103.835999) can0 1060720B##1029346864402A3FB89440287E98744025CA2874402BADF874402CF71884402B33C954402B207944400000000000000FA R
(1776443103.838185) can0 1860770B##1B55CAA3D114ABF412D1A5440EC8B53409F0A9E4317C90E3E0B000000000000FE R
(1776443103.936374) can0 107D557D##162551A0000000AE2 T
(1776443103.937069) can0 107C007D##124E42464AA4F06E4 T
(1776443104.002346) can0 1060E10A##10100000000010000000001000000000100000000000000EB T
(1776443104.023810) can0 107D5516##19259700000000AF1 R
(1776443104.028412) can0 1060DF16##10100000000010000000001000000000100000000000000ED R
(1776443104.031326) can0 1060E016##10219E87E44020000C07F020000C07F020000C07F020000C07F020000C07F020000C07F020000C07F00000000000000ED R
(1776443104.032363) can0 10613B0A##10100001041010000000001000000000100000000000000EB T
(1776443104.033515) can0 1860E516##17037993C9A03BE4119635340A5B253409CCA9B438A5E903E16000000000000F1 R
(1776443104.036196) can0 1060870A##10100000000010000000001000000000100000000000000EC T
(1776443104.096160) can0 1060730A##10100000000010000000001000000000100000000000000EC T
(1776443104.103996) can0 1060EB0A##10100000000010000000001000000000100000000000000EC T
(1776443104.105107) can0 1060D70A##10100000000010000000001000000000100000000000000EC T
(1776443104.105502) can0 10607D0A##10100000000010000000001000000000100000000000000EC T
(1776443104.105875) can0 1060910A##10100000000010000000001000000000100000000000000EC T
(1776443104.229524) can0 10608D0E##101000100010001000180018001000180000000E9 R
(1776443104.390519) can0 107D550C##13D2D700000000AFC R
(1776443104.395059) can0 10607B0C##10100000000010000000001000000000100000000000000F8 R
(1776443104.397923) can0 10607C0C##102372A95440264488C44026AC48A440241918B440233DF8E4402147F91440256C09244027133944400000000000000F8 R
(1776443104.400067) can0 1860810C##17F6A9F3C361BBF4145F252409AB85240EE0E9E43C2D31C3E0C000000000000FC R
(1776443104.401484) can0 107D550D##1150B700000000AF4 R
(1776443104.403530) can0 1060850D##10100000000010000000001000000000100000000000000F0 R
(1776443104.408099) can0 1060860D##10248C09A4402F2179A4402B2D6994402BD2E994402E1FD95440221578C44020000C07F020324914400000000000000F0 R
(1776443104.410283) can0 18608B0D##11654A83CF53DC041F9D352405D0D5340D3349E43ABBE293E0D000000000000F4 R
(1776443104.430751) can0 107D5515##1F36D700000000AF2 R
(1776443104.435357) can0 1060D515##10100000000010000000001000000000100000000000000EE R
(1776443104.438100) can0 1060D615##1023CE1874402879A884402D6B0874402147B8844020000C07F02A60D7A44020000C07F020000C07F00000000000000EE R
(1776443104.438877) can0 107C007D##12D822C64AA4F06E5 T
(1776443104.440268) can0 1860DB15##16213C63CE53AB941B61C534092C25340F76D9B439E7B893E15000000000000F2 R
(1776443104.549041) can0 107D550A##1D4913E00000000F4 T
(1776443104.555900) can0 107D5517##1854C700000000AE4 R
(1776443104.560449) can0 1060E917##10100000000010000000001000000000100000000000000E0 R
(1776443104.563246) can0 1060EA17##10279A4874402D54588440242C1874402012F884402CCB887440225098844020000C07F020000C07F00000000000000E0 R
(1776443104.565420) can0 1860EF17##111A4E03C64B6BE41F77453403384524027BD9A431A79963E17000000000000E4 R
(1776443104.626187) can0 107D550E##17523700000000AF4 R
(1776443104.630793) can0 10608F0E##10100000000010000000001000000000100000000000000F0 R
(1776443104.633699) can0 1060900E##1029E8B7B44020000C07F020000C07F020000C07F020000C07F020000C07F020000C07F020000C07F00000000000000F0 R
(1776443104.635845) can0 1860950E##13F7CA43CCBDDBE41F0695340307E53401C5A9E437547373E0E000000000000F4 R
(1776443104.673190) can0 107D5518##1B46E700000000AF3 R
(1776443104.677795) can0 1060F318##10100000000010000000001000000000100000000000000EF R
(1776443104.680654) can0 1060F418##10209E67444020000C07F020000C07F020000C07F020000C07F020000C07F020000C07F020000C07F00000000000000EF R
(1776443104.682846) can0 1860F918##17F37783C8D1EBD4180575440C3745340CC6B9C43143C9E3E18000000000000F3 R
(1776443104.818417) can0 107D551F##11F53700000000AFE R
(1776443104.822855) can0 1061371F##101000100010001000100010001000180000000E3 R
(1776443104.824911) can0 1061391F##101FC6D3640011F84B34001000000000100000000000000FA R
(1776443104.827761) can0 10613A1F##1021FDC8444020E9784440226D78444020000C07F020000C07F020000C07F020000C07F021C62784400000000000000FA R
(1776443104.829164) can0 107D550B##16005700000000AFF R
(1776443104.831436) can0 18613F1F##13ED0CC3C02000080C9D552405F925340E64899434BF5CB3E1F000000000000FE R
(1776443104.833574) can0 1060710B##10100000000010000000001000000000100000000000000FB R
(1776443104.836400) can0 1060720B##102804B864402B6FA894402A4E9874402C39F87440266EF874402D55E884402383495440208FA934400000000000000FB R
(1776443104.838604) can0 1860770B##1FE9DAA3D2B44BF418B0D5440D8A4534085009E43E1DB0E3E0B000000000000FF R
(1776443104.935624) can0 107D557D##163551A0000000AE3 T
(1776443104.937288) can0 107C007D##15D2A3464AA4F06E6 T
(1776443105.010909) can0 1060E10A##10100000000010000000001000000000100000000000000EC T
(1776443105.022351) can0 107D5516##19359700000000AF2 R
(1776443105.026981) can0 1060DF16##10100000000010000000001000000000100000000000000EE R
(1776443105.029877) can0 1060E016##1027BDD7E44020000C07F020000C07F020000C07F020000C07F020000C07F020000C07F020000C07F00000000000000EE R
(1776443105.032100) can0 1860E516##1752B983CFA08BE41506C5340D8BD53403BD29B435557903E16000000000000F2 R
(1776443105.043938) can0 1060790C##101000100018001000180010001000180000000EE R
(1776443105.047181) can0 10613B0A##10100001041010000000001000000000100000000000000EC T
(1776443105.049241) can0 1060870A##10100000000010000000001000000000100000000000000ED T
(1776443105.097052) can0 1060730A##10100000000010000000001000000000100000000000000ED T
(1776443105.106468) can0 1060EB0A##10100000000010000000001000000000100000000000000ED T
(1776443105.107527) can0 1060D70A##10100000000010000000001000000000100000000000000ED T
(1776443105.107838) can0 10607D0A##10100000000010000000001000000000100000000000000ED T
(1776443105.108143) can0 1060910A##10100000000010000000001000000000100000000000000ED T
(1776443105.390517) can0 107D550C##13E2D700000000AFD R
(1776443105.395046) can0 10607B0C##10100000000010000000001000000000100000000000000F9 R
(1776443105.397813) can0 10607C0C##1022A2095440268428C4402E3BE8A4402B6878B44025FCF8E4402EE94914402A3D3924402E03C944400000000000000F9 R
(1776443105.400042) can0 1860810C##18A3D9D3CAF20BF41ECFC5240C3D2524049179E4382F01C3E0C000000000000FD R
(1776443105.401479) can0 107D550D##1160B700000000AF5 R
(1776443105.405371) can0 1060850D##10100000000010000000001000000000100000000000000F1 R
(1776443105.408202) can0 1060860D##1027CCF9A4402250C9A440205E9994402D63E994402B7EE9544025F468C44020000C07F02BF1D914400000000000000F1 R
(1776443105.410418) can0 18608B0D##1EC8CA83CA643C041F2DA52406E0353409E4B9E4347B1293E0D000000000000F5 R
(1776443105.428577) can0 107D5515##1F46D700000000AF3 R
(1776443105.433161) can0 1060D515##10100000000010000000001000000000100000000000000EF R
(1776443105.435971) can0 1060D615##1027AE1874402E9978844028BB6874402A67C8844020000C07F0212227A44020000C07F020000C07F00000000000000EF R
(1776443105.437380) can0 107C007D##148C53B64AA4F06E7 T
(1776443105.438158) can0 1860DB15##19367C73CC745B941842C534068E85340AF719B431D88893E15000000000000F3 R
(1776443105.549104) can0 107D550A##1D5913E00000000F5 T
(1776443105.554553) can0 107D5517##1864C700000000AE5 R
(1776443105.559080) can0 1060E917##10100000000010000000001000000000100000000000000E1 R
(1776443105.561928) can0 1060EA17##1026990874402E24988440220B9874402622E88440247A9874402100A8844020000C07F020000C07F00000000000000E1 R
(1776443105.564088) can0 1860EF17##1D90BE23C25ADBE41FC56534017875240F6C19A43B980963E17000000000000E5 R
(1776443105.626262) can0 107D550E##17623700000000AF5 R
(1776443105.630848) can0 10608F0E##10100000000010000000001000000000100000000000000F1 R
(1776443105.633705) can0 1060900E##10286857B44020000C07F020000C07F020000C07F020000C07F020000C07F020000C07F020000C07F00000000000000F1 R
(1776443105.635893) can0 1860950E##18AFCA23CC0D4BE414F615340196D5340B7529E439D13373E0E000000000000F5 R
(1776443105.670138) can0 107D5518##1B56E700000000AF4 R
(1776443105.674739) can0 1060F318##10100000000010000000001000000000100000000000000F0 R
(1776443105.677617) can0 1060F418##10224EB7444020000C07F020000C07F020000C07F020000C07F020000C07F020000C07F020000C07F00000000000000F0 R
(1776443105.679802) can0 1860F918##1D3D8753C1C1DBD41AF4554402264534006729C4396259E3E18000000000000F4 R
(1776443105.816804) can0 107D551F##12053700000000AFF R
(1776443105.821295) can0 1061391F##101536B364001FB7FB34001000000000100000000000000FB R
(1776443105.824173) can0 10613A1F##102D1CC8444024A9A84440257CE8444020000C07F020000C07F020000C07F020000C07F028C6D784400000000000000FB R
(1776443105.826409) can0 18613F1F##11AFCD03C020000809BD05240AD97534025499943CFE4CB3E1F000000000000FF R
(1776443105.829977) can0 107D550B##16105700000000AE0 R
(1776443105.834615) can0 1060710B##10100000000010000000001000000000100000000000000FC R
(1776443105.837403) can0 1060720B##1029940864402AFF68944029CF48744029D9D874402A2EE8744021267884402F13395440233FF934400000000000000FC R
(1776443105.839537) can0 1860770B##16CC2AA3DB045BF413B1A544008A95340090A9E435BDF0E3E0B000000000000E0 R
(1776443105.935976) can0 107D557D##164551A0000000AE4 T
(1776443105.937698) can0 107C007D##1C4664364AA4F06E8 T
(1776443106.020952) can0 107D5516##19459700000000AF3 R
(1776443106.025539) can0 1060DF16##10100000000010000000001000000000100000000000000EF R
(1776443106.028445) can0 1060E016##10215E17E44020000C07F020000C07F020000C07F020000C07F020000C07F020000C07F020000C07F00000000000000EF R
(1776443106.030660) can0 1860E516##1D5A9983CA40CBE41BA7853400EBE5340D1D49B436E5A903E16000000000000F3 R
(1776443106.035488) can0 1060E10A##10100000000010000000001000000000100000000000000ED T
(1776443106.051173) can0 10613B0A##10100001041010000000001000000000100000000000000ED T
(1776443106.053074) can0 1060870A##10100000000010000000001000000000100000000000000EE T
(1776443106.099545) can0 1060730A##10100000000010000000001000000000100000000000000EE T
(1776443106.111323) can0 1060EB0A##10100000000010000000001000000000100000000000000EE T
(1776443106.111713) can0 1060D70A##10100000000010000000001000000000100000000000000EE T
(1776443106.112237) can0 10607D0A##10100000000010000000001000000000100000000000000EE T
(1776443106.112743) can0 1060910A##10100000000010000000001000000000100000000000000EE T
(1776443106.390214) can0 107D550C##13F2D700000000AFE R
(1776443106.394819) can0 10607B0C##10100000000010000000001000000000100000000000000FA R
(1776443106.397628) can0 10607C0C##102281C95440281508C4402F1C88A44024C888B440223DA8E4402A082914402FAB59244029B30944400000000000000FA R
(1776443106.399782) can0 1860810C##1D1149E3C811FBF4170FA524015D7524002179E4395B41C3E0C000000000000FE R
(1776443106.401902) can0 107D550D##1170B700000000AF6 R
(1776443106.406567) can0 1060850D##10100000000010000000001000000000100000000000000F2 R
(1776443106.409354) can0 1060860D##1028EC09A440253169A4402340C9A4402F32D994402D4F59544027D4D8C44020000C07F020908914400000000000000F2 R
(1776443106.411525) can0 18608B0D##14CE6A73C1C3DC041C9C7524091135340FA379E4351E2293E0D000000000000F6 R
(1776443106.426435) can0 107D5515##1F56D700000000AF4 R
(1776443106.430986) can0 1060D515##10100000000010000000001000000000100000000000000F0 R
(1776443106.433796) can0 1060D615##102DCE1874402DE9D88440224AE8744028C828844020000C07F02BE1F7A44020000C07F020000C07F00000000000000F0 R
(1776443106.436012) can0 1860DB15##1ED80C53C5E3CB941CC2A5340C9C85340566B9B43B078893E15000000000000F4 R
(1776443106.437135) can0 107C007D##122094B64AA4F06E9 T
(1776443106.547884) can0 107D550A##1D6913E00000000F6 T
(1776443106.552880) can0 107D5517##1874C700000000AE6 R
(1776443106.557466) can0 1060E917##10100000000010000000001000000000100000000000000E2 R
(1776443106.560276) can0 1060EA17##1024D97874402B24088440217B1874402A32F88440281BE8744020A108844020000C07F020000C07F00000000000000E2 R
(1776443106.562435) can0 1860EF17##1307CE13CCCAEBE41966E53400B855240E0BA9A432E7F963E17000000000000E6 R
(1776443106.626313) can0 107D550E##17723700000000AF6 R
(1776443106.630961) can0 10608F0E##10100000000010000000001000000000100000000000000F2 R
(1776443106.633779) can0 1060900E##1023C7F7B44020000C07F020000C07F020000C07F020000C07F020000C07F020000C07F020000C07F00000000000000F2 R
(1776443106.635980) can0 1860950E##1E5CDA43C51E0BE4165705340057A5340215E9E430029373E0E000000000000F6 R
(1776443106.666961) can0 107D5518##1B66E700000000AF5 R
(1776443106.671542) can0 1060F318##10100000000010000000001000000000100000000000000F1 R
(1776443106.674389) can0 1060F418##1024EFB7444020000C07F020000C07F020000C07F020000C07F020000C07F020000C07F020000C07F00000000000000F1 R
(1776443106.676563) can0 1860F918##16F6E7B3CAB25BD41B75C544018485340866C9C4391179E3E18000000000000F5 R
(1776443106.815268) can0 107D551F##12153700000000AE0 R
(1776443106.819773) can0 1061391F##101BA6A3640019882B34001000000000100000000000000FC R
(1776443106.822629) can0 10613A1F##10283CF844402D39384440279D78444020000C07F020000C07F020000C07F020000C07F024F62784400000000000000FC R
(1776443106.824898) can0 18613F1F##1136FCE3C02000080B1D6524048A7534018509943E800CC3E1F000000000000E0 R
(1776443106.830961) can0 107D550B##16205700000000AE1 R
(1776443106.835544) can0 1060710B##10100000000010000000001000000000100000000000000FD R
